Time Stamp,ID,Extended,Dir,Bus,LEN,D1,D2,D3,D4,D5,D6,D7,D8
39069983,00000412,false,Rx,0,2,00,00,00,00,00,00,00,00,
39075680,00000036,false,Rx,0,8,0E,00,00,2F,03,00,00,A0,
39119599,00000036,false,Rx,0,8,0E,00,00,2F,01,00,00,A0,
39121382,000005D2,false,Rx,0,8,B0,00,00,00,01,0A,06,16,
39127561,000005E5,false,Rx,0,8,25,09,03,05,18,08,20,11,
39134743,000005DF,false,Rx,0,8,1F,18,09,03,08,00,20,0D,
39139937,00000512,false,Rx,0,8,01,00,00,00,00,00,00,00,
39141705,000000B6,false,Rx,0,8,FF,FF,00,00,00,00,00,D0,
39143560,00000217,false,Rx,0,8,F0,00,00,00,00,FF,00,00,
39147412,00000167,false,Rx,0,8,09,06,FF,FF,7F,FF,00,00,
39154946,000001A1,false,Rx,0,8,7F,FF,00,FF,FF,FF,FF,FF,
39160066,000001E1,false,Rx,0,8,80,80,80,80,80,80,00,00,
39162982,00000257,false,Rx,0,6,1F,5E,0B,E0,A1,F4,00,00,
39169868,0000024C,false,Rx,0,5,04,00,00,00,00,00,00,00,
39175334,00000120,false,Rx,0,8,FC,00,00,00,00,00,00,00,
39180427,00000168,false,Rx,0,8,8C,40,00,B2,24,00,20,00,
39194502,0000018C,false,Rx,0,2,00,00,00,00,00,00,00,00,
39205011,0000014C,false,Rx,0,5,00,00,00,00,80,00,00,00,
39209791,00000126,false,Rx,0,3,00,B0,00,00,00,00,00,00,
39219772,0000028C,false,Rx,0,5,04,00,00,00,00,00,00,00,
39227570,000005F1,false,Rx,0,8,31,14,08,03,05,00,20,09,
39229914,00000361,false,Rx,0,6,01,01,91,40,30,10,00,00,
39237052,0000015B,false,Rx,0,8,05,00,00,00,00,00,00,00,
39238322,000000E1,false,Rx,0,7,D8,00,3F,FC,FC,FC,00,00,
39238346,0000051D,false,Rx,0,8,01,00,00,00,00,00,00,00,
39241199,000005DD,false,Rx,0,8,1D,02,06,05,02,84,20,12,
39250642,00000131,false,Rx,0,5,01,00,00,00,00,00,00,00,
39250667,000001A0,false,Rx,0,2,92,00,00,00,00,00,00,00,
39251598,000000E2,false,Rx,0,8,00,00,00,00,00,00,30,00,
39253461,00000162,false,Rx,0,7,00,01,16,01,00,2F,00,00,
39260323,000003A7,false,Rx,0,8,10,00,00,03,EE,FF,FF,05,
39270856,000001E5,false,Rx,0,7,3F,3F,42,3F,44,00,17,00,
39275008,000002B6,false,Rx,0,8,32,31,37,31,35,33,38,33,
39280170,000001A8,false,Rx,0,8,00,FF,FF,00,00,13,E2,2D,
39288892,000001CC,false,Rx,0,2,00,00,00,00,00,00,00,00,
39306038,0000012D,false,Rx,0,8,00,41,41,00,00,64,98,80,
39315079,00000128,false,Rx,0,8,B1,C0,00,00,C0,80,B0,01,
39316997,000001DF,false,Rx,0,3,00,00,00,00,00,00,00,00,
39327189,000001E2,false,Rx,0,7,FF,FF,FF,FF,7F,00,00,00,
39328979,000001A2,false,Rx,0,5,FF,FF,FF,00,00,00,00,00,
39330443,00000161,false,Rx,0,7,00,00,3C,07,00,00,FF,00,
39331433,000005E0,false,Rx,0,8,20,1E,03,04,05,0E,20,0D,
39331449,00000217,false,Rx,0,8,F1,00,80,00,00,FF,00,00,
39341670,00000165,false,Rx,0,4,00,00,00,00,00,00,00,00,
39359360,000002A0,false,Rx,0,1,00,00,00,00,00,00,00,00,
39372612,00000217,false,Rx,0,8,F1,00,80,00,00,FF,FF,E0,
39409825,000000F6,false,Rx,0,8,88,3C,1F,5E,0B,FC,FF,28,
39422452,00000217,false,Rx,0,8,F1,10,80,00,00,FF,00,60,
39434794,00000260,false,Rx,0,8,01,03,B1,40,00,D0,00,10,
39444793,000002A1,false,Rx,0,7,25,02,39,00,49,03,99,00,
39457688,0000015B,false,Rx,0,8,01,03,B1,40,00,D0,00,10,
39534781,00000220,false,Rx,0,2,04,00,00,00,00,00,00,00,
39545614,00000225,false,Rx,0,5,30,00,40,03,98,00,00,00,
39553794,000001A1,false,Rx,0,8,7F,FF,10,FF,FF,FF,FF,FF,
39563749,00000217,false,Rx,0,8,F1,00,80,00,00,FF,FE,E0,
39591162,0000051F,false,Rx,0,8,15,FF,00,00,01,48,00,00,
39593277,00000317,false,Rx,0,8,F4,20,82,88,40,00,00,00,
39616983,000000DF,false,Rx,0,3,10,00,50,00,00,00,00,00,
39634757,00000227,false,Rx,0,4,00,00,10,00,00,00,00,00,
39650096,000002E1,false,Rx,0,5,DD,F4,40,1C,00,00,00,00,
39680374,000003B6,false,Rx,0,6,36,4A,52,48,52,48,00,00,
39748128,000003A5,false,Rx,0,6,FF,FF,FF,FF,7F,00,00,00,
39748154,00000265,false,Rx,0,4,00,00,00,00,00,00,00,00,
39750247,000001E0,false,Rx,0,5,00,00,00,00,00,00,00,00,
39750271,000001A5,false,Rx,0,1,00,00,00,00,00,00,00,00,
39751565,000002A5,false,Rx,0,8,00,00,00,00,00,00,00,00,
39751589,00000325,false,Rx,0,3,00,00,00,00,00,00,00,00,
39752581,00000365,false,Rx,0,5,FF,FF,FF,00,00,00,00,00,
39752607,000003E5,false,Rx,0,6,00,00,00,00,00,00,00,00,
39777813,00000336,false,Rx,0,3,56,46,33,00,00,00,00,00,
39808839,00000265,false,Rx,0,4,80,00,00,00,00,00,00,00,
39836817,00000161,false,Rx,0,7,00,00,FF,07,00,00,FF,00,
39849332,00000165,false,Rx,0,4,48,80,00,00,00,00,00,00,
39851108,00000221,false,Rx,0,7,00,FF,FF,FF,FF,FF,FF,00,
39950027,00000260,false,Rx,0,8,02,03,92,C0,00,D0,00,10,
40053113,00000165,false,Rx,0,4,48,A0,00,00,00,00,00,00,
40054518,00000261,false,Rx,0,7,25,02,39,00,49,03,99,00,
40116160,000003F6,false,Rx,0,7,00,06,70,00,00,C0,01,00,
40119027,00000525,false,Rx,0,8,05,00,00,00,00,00,00,00,
40123756,00000225,false,Rx,0,5,20,00,40,03,98,00,00,00,
40157903,000003F6,false,Rx,0,7,00,06,80,00,00,C0,01,00,
40190853,00000120,false,Rx,0,8,F0,00,00,00,00,00,00,00,
40225889,00000531,false,Rx,0,8,00,00,00,00,00,00,00,00,
40264753,00000520,false,Rx,0,8,00,00,00,00,00,00,00,00,
40275644,000003A7,false,Rx,0,8,10,00,00,03,EE,01,3C,05,
40449897,00000260,false,Rx,0,8,03,03,A4,C0,00,C0,00,00,
40507876,00000525,false,Rx,0,8,05,00,01,00,00,00,00,00,
40530088,000003F6,false,Rx,0,7,00,00,10,00,00,C0,01,00,
40955769,00000260,false,Rx,0,8,01,03,B1,40,00,D0,00,10,
41084210,0000049F,false,Rx,0,8,50,71,55,00,03,04,05,06,
41120123,00000525,false,Rx,0,8,05,00,00,00,00,00,00,00,
41157125,000003F6,false,Rx,0,7,00,06,90,00,00,C0,01,00,
41162377,000000B6,false,Rx,0,8,FF,FF,FF,FF,00,00,00,D0,
41305848,000001A8,false,Rx,0,8,00,FF,FF,00,00,FF,FF,FF,
41364986,00000221,false,Rx,0,7,80,FF,FF,FF,FF,FF,FF,00,
41368202,000002A1,false,Rx,0,7,FF,02,39,FF,FF,03,99,00,
41368213,00000261,false,Rx,0,7,FF,02,39,FF,FF,03,99,00,
41420144,000001A1,false,Rx,0,8,80,00,58,FF,FF,FF,FF,FF,
41435741,000000F6,false,Rx,0,8,88,FF,FF,FF,FF,FC,FF,28,
41470594,00000260,false,Rx,0,8,02,03,92,C0,00,D0,00,10,
41547956,00000525,false,Rx,0,8,05,00,01,00,00,00,00,00,
41571965,000003F6,false,Rx,0,7,00,00,20,00,00,C0,01,00,
41681266,000002E1,false,Rx,0,5,DD,C4,40,1C,00,00,00,00,
41698177,000001E1,false,Rx,0,8,40,40,40,40,80,20,00,00,
41752329,00000128,false,Rx,0,8,B0,C0,00,00,C0,80,B0,01,
41815847,00000168,false,Rx,0,8,8D,40,00,B2,24,00,20,00,
41948026,000000F6,false,Rx,0,8,88,FF,FF,FF,FF,FF,FF,28,
41971161,00000260,false,Rx,0,8,03,03,A4,C0,00,C0,00,00,
42119065,00000525,false,Rx,0,8,05,00,00,00,00,00,00,00,
42130652,00000128,false,Rx,0,8,91,E0,00,00,C0,80,B0,01,
42132202,000000F6,false,Rx,0,8,88,FF,FF,FF,FF,FF,FF,20,
42158594,000003F6,false,Rx,0,7,00,06,A0,00,00,C0,01,00,
42221399,00000168,false,Rx,0,8,05,00,00,02,24,00,00,00,
42476498,00000260,false,Rx,0,8,01,03,B1,40,00,D0,00,10,
42587990,00000525,false,Rx,0,8,05,00,01,00,00,00,00,00,
42610784,000003F6,false,Rx,0,7,00,00,30,00,00,C0,01,00,
42959640,000004A0,false,Rx,0,8,50,C9,17,80,FF,FF,FF,FF,
42985819,00000260,false,Rx,0,8,02,03,92,C0,00,D0,00,10,
43019622,000004A0,false,Rx,0,8,50,C9,18,80,FF,FF,FF,FF,
43071909,000004A0,false,Rx,0,8,58,C9,19,80,FF,FF,FF,FF,
43120955,00000525,false,Rx,0,8,05,00,00,00,00,00,00,00,
43123491,000004A0,false,Rx,0,8,58,C9,1A,80,FF,FF,FF,FF,
43159045,000003F6,false,Rx,0,7,00,06,B0,00,00,C0,01,00,
43226885,00000120,false,Rx,0,8,7C,10,00,03,00,04,00,08,
43443289,000001A1,false,Rx,0,8,00,83,C6,FF,FF,FF,FF,FF,
43454418,00000167,false,Rx,0,8,09,06,FF,FF,80,83,00,00,
43479316,00000217,false,Rx,0,8,F1,00,80,00,00,FF,FF,E0,
43491952,00000260,false,Rx,0,8,03,03,A4,C0,00,C0,00,00,
43549096,0000049F,false,Rx,0,8,58,71,55,FF,03,04,05,06,
43628265,00000525,false,Rx,0,8,05,00,01,00,00,00,00,00,
43653016,000003F6,false,Rx,0,7,00,00,40,00,00,C0,01,00,
43996230,00000260,false,Rx,0,8,01,03,B1,40,00,D0,00,10,
44125918,00000525,false,Rx,0,8,05,00,00,00,00,00,00,00,
44166499,000003F6,false,Rx,0,7,00,06,C0,00,00,C0,01,00,
44242049,00000120,false,Rx,0,8,FC,00,00,00,00,0F,00,00,
44501433,00000260,false,Rx,0,8,02,03,92,C0,00,D0,00,10,
44668809,00000525,false,Rx,0,8,05,00,01,00,00,00,00,00,
44692697,000003F6,false,Rx,0,7,00,00,50,00,00,C0,01,00,
45017250,00000260,false,Rx,0,8,03,03,A4,C0,00,C0,00,00,
45127878,00000525,false,Rx,0,8,05,00,00,00,00,00,00,00,
45165778,000003F6,false,Rx,0,7,00,06,D0,00,00,C0,01,00,
45263012,00000120,false,Rx,0,8,BC,00,00,00,00,00,00,00,
45522496,00000260,false,Rx,0,8,01,03,B1,40,00,D0,00,10,
45581782,000001A1,false,Rx,0,8,80,08,C1,FF,FF,FF,FF,FF,
45594122,00000167,false,Rx,0,8,09,06,FF,FF,80,08,00,00,
45708772,00000525,false,Rx,0,8,05,00,01,00,00,00,00,00,
45732686,000003F6,false,Rx,0,7,00,00,60,00,00,C0,01,00,
46037878,00000260,false,Rx,0,8,02,03,92,C0,00,D0,00,10,
46134889,00000525,false,Rx,0,8,05,00,00,00,00,00,00,00,
46174283,000003F6,false,Rx,0,7,00,06,E0,00,00,C0,01,00,
46283180,00000120,false,Rx,0,8,7C,10,00,03,00,04,00,08,
46542976,00000260,false,Rx,0,8,03,03,A4,C0,00,C0,00,00,
46749802,00000525,false,Rx,0,8,05,00,01,00,00,00,00,00,
46772641,000003F6,false,Rx,0,7,00,00,70,00,00,C0,01,00,
47048087,00000260,false,Rx,0,8,01,03,B1,40,00,D0,00,10,
47135044,00000525,false,Rx,0,8,05,00,00,00,00,00,00,00,
47174627,000003F6,false,Rx,0,7,00,06,F0,00,00,C0,01,00,
47292649,00000120,false,Rx,0,8,FC,00,00,00,00,0F,00,00,
47548477,00000260,false,Rx,0,8,02,03,92,C0,00,D0,00,10,
47789313,00000525,false,Rx,0,8,05,00,01,00,00,00,00,00,
47813253,000003F6,false,Rx,0,7,00,00,80,00,00,C0,01,00,
48048509,00000260,false,Rx,0,8,03,03,A4,C0,00,C0,00,00,
48135502,00000525,false,Rx,0,8,05,00,00,00,00,00,00,00,
48174963,000003F6,false,Rx,0,7,00,07,00,00,00,C0,01,00,
48293017,00000120,false,Rx,0,8,BC,00,00,00,00,00,00,00,
48548835,00000260,false,Rx,0,8,01,03,B1,40,00,D0,00,10,
48829257,00000525,false,Rx,0,8,05,00,01,00,00,00,00,00,
48851995,000003F6,false,Rx,0,7,00,00,90,00,00,C0,01,00,
49048867,00000260,false,Rx,0,8,02,03,92,C0,00,D0,00,10,
49135785,00000525,false,Rx,0,8,05,00,00,00,00,00,00,00,
49175046,000003F6,false,Rx,0,7,00,07,10,00,00,C0,01,00,
49292553,00000120,false,Rx,0,8,7C,10,00,03,00,04,00,08,
49548836,00000260,false,Rx,0,8,03,03,A4,C0,00,C0,00,00,
49868929,00000525,false,Rx,0,8,05,00,01,00,00,00,00,00,
49892001,000003F6,false,Rx,0,7,00,00,A0,00,00,C0,01,00,
50049211,00000260,false,Rx,0,8,01,03,B1,40,00,D0,00,10,
50136382,00000525,false,Rx,0,8,05,00,00,00,00,00,00,00,
50174732,000003F6,false,Rx,0,7,00,07,20,00,00,C0,01,00,
50294138,00000120,false,Rx,0,8,FC,00,00,00,00,0F,00,00,
50549488,00000260,false,Rx,0,8,02,03,92,C0,00,D0,00,10,
50908704,00000525,false,Rx,0,8,05,00,01,00,00,00,00,00,
50933716,000003F6,false,Rx,0,7,00,00,B0,00,00,C0,01,00,
51049431,00000260,false,Rx,0,8,03,03,A4,C0,00,C0,00,00,
51136738,00000525,false,Rx,0,8,05,00,00,00,00,00,00,00,
51175995,000003F6,false,Rx,0,7,00,07,30,00,00,C0,01,00,
51294408,00000120,false,Rx,0,8,BC,00,00,00,00,00,00,00,
51549821,00000260,false,Rx,0,8,01,03,B1,40,00,D0,00,10,
51948749,00000525,false,Rx,0,8,05,00,01,00,00,00,00,00,
51955446,00000221,false,Rx,0,7,C0,FF,FF,FF,FF,FF,FF,00,
51977974,000003F6,false,Rx,0,7,00,00,C0,00,00,C0,01,00,
52049881,00000260,false,Rx,0,8,02,03,92,C0,00,D0,00,10,
52137028,00000525,false,Rx,0,8,05,00,00,00,00,00,00,00,
52177719,000003F6,false,Rx,0,7,00,07,40,00,00,C0,01,00,
52294784,00000120,false,Rx,0,8,7C,10,00,03,00,04,00,08,
52549793,00000260,false,Rx,0,8,03,03,A4,C0,00,C0,00,00,
52605050,000001A1,false,Rx,0,8,00,65,41,FF,FF,FF,FF,FF,
52636453,00000167,false,Rx,0,8,09,06,FF,FF,00,00,00,00,
52988690,00000525,false,Rx,0,8,05,00,01,00,00,00,00,00,
53014880,000003F6,false,Rx,0,7,00,00,D0,00,00,C0,01,00,
53049299,00000260,false,Rx,0,8,01,03,B1,40,00,D0,00,10,
53147719,00000525,false,Rx,0,8,05,00,00,00,00,00,00,00,
53187228,000003F6,false,Rx,0,7,00,07,50,00,00,C0,01,00,
53294017,00000120,false,Rx,0,8,FC,00,00,00,00,0F,00,00,
53549703,00000260,false,Rx,0,8,02,03,92,C0,00,D0,00,10,
53559389,000002A1,false,Rx,0,7,FF,FF,FF,FF,FF,03,99,00,
54028918,00000525,false,Rx,0,8,05,00,01,00,00,00,00,00,
54050736,00000260,false,Rx,0,8,03,03,A4,C0,00,C0,00,00,
54053550,000003F6,false,Rx,0,7,00,00,E0,00,00,C0,01,00,
54146879,00000525,false,Rx,0,8,05,00,00,00,00,00,00,00,
54160715,00000261,false,Rx,0,7,FF,FF,FF,FF,FF,03,99,00,
54187251,000003F6,false,Rx,0,7,00,07,60,00,00,C0,01,00,
54296098,00000120,false,Rx,0,8,BC,00,00,00,00,00,00,00,
54550862,00000260,false,Rx,0,8,01,03,B1,40,00,D0,00,10,
55050862,00000260,false,Rx,0,8,02,03,92,C0,00,D0,00,10,
55069390,00000525,false,Rx,0,8,05,00,01,00,00,00,00,00,
55093830,000003F6,false,Rx,0,7,00,00,F0,00,00,C0,01,00,
55147989,00000525,false,Rx,0,8,05,00,00,00,00,00,00,00,
55187577,000003F6,false,Rx,0,7,00,07,70,00,00,C0,01,00,
55296217,00000120,false,Rx,0,8,7C,10,00,03,00,04,00,08,
55551151,00000260,false,Rx,0,8,03,03,A4,C0,00,C0,00,00,
56052005,00000260,false,Rx,0,8,01,03,B1,40,00,D0,00,10,
56109452,00000525,false,Rx,0,8,05,00,01,00,00,00,00,00,
56134047,000003F6,false,Rx,0,7,00,01,00,00,00,C0,01,00,
56148752,00000525,false,Rx,0,8,05,00,00,00,00,00,00,00,
56187621,000003F6,false,Rx,0,7,00,07,80,00,00,C0,01,00,
56295433,00000120,false,Rx,0,8,FC,00,00,00,00,0F,00,00,
56551732,00000260,false,Rx,0,8,02,03,92,C0,00,D0,00,10,
57052167,00000260,false,Rx,0,8,03,03,A4,C0,00,C0,00,00,
57151160,00000525,false,Rx,0,8,05,00,01,00,00,00,00,00,
57173083,000003F6,false,Rx,0,7,00,01,10,00,00,C0,01,00,
57187015,000003F6,false,Rx,0,7,00,07,90,00,00,C0,01,00,
57296844,00000120,false,Rx,0,8,BC,00,00,00,00,00,00,00,
57552021,00000260,false,Rx,0,8,01,03,B1,40,00,D0,00,10,
57611205,000001A1,false,Rx,0,8,80,08,C1,FF,FF,FF,FF,FF,
57623441,00000167,false,Rx,0,8,09,06,FF,FF,80,08,00,00,
58052448,00000260,false,Rx,0,8,02,03,92,C0,00,D0,00,10,
58154219,00000525,false,Rx,0,8,05,00,00,00,00,00,00,00,
58189489,00000525,false,Rx,0,8,05,00,01,00,00,00,00,00,
58193790,000003F6,false,Rx,0,7,00,07,A0,00,00,C0,01,00,
58216335,000003F6,false,Rx,0,7,00,01,20,00,00,C0,01,00,
58297513,00000120,false,Rx,0,8,7C,10,00,03,00,04,00,08,
58552486,00000260,false,Rx,0,8,03,03,A4,C0,00,C0,00,00,
59052950,00000260,false,Rx,0,8,01,03,B1,40,00,D0,00,10,
59154498,00000525,false,Rx,0,8,05,00,00,00,00,00,00,00,
59195011,000003F6,false,Rx,0,7,00,07,B0,00,00,C0,01,00,
59230845,00000525,false,Rx,0,8,05,00,01,00,00,00,00,00,
59254774,000003F6,false,Rx,0,7,00,01,30,00,00,C0,01,00,
59297949,00000120,false,Rx,0,8,FC,00,00,00,00,0F,00,00,
59552855,00000260,false,Rx,0,8,02,03,92,C0,00,D0,00,10,
60052861,00000260,false,Rx,0,8,03,03,A4,C0,00,C0,00,00,
60155149,00000525,false,Rx,0,8,05,00,00,00,00,00,00,00,
60194142,000003F6,false,Rx,0,7,00,07,C0,00,00,C0,01,00,
60271226,00000525,false,Rx,0,8,05,00,01,00,00,00,00,00,
60295213,000003F6,false,Rx,0,7,00,01,40,00,00,C0,01,00,
60299372,00000120,false,Rx,0,8,BC,00,00,00,00,00,00,00,
60552833,00000260,false,Rx,0,8,01,03,B1,40,00,D0,00,10,
61053187,00000260,false,Rx,0,8,02,03,92,C0,00,D0,00,10,
61155202,00000525,false,Rx,0,8,05,00,00,00,00,00,00,00,
61196475,000003F6,false,Rx,0,7,00,07,D0,00,00,C0,01,00,
61297494,00000120,false,Rx,0,8,7C,10,00,03,00,04,00,08,
61311336,00000525,false,Rx,0,8,05,00,01,00,00,00,00,00,
61335418,000003F6,false,Rx,0,7,00,01,50,00,00,C0,01,00,
61553533,00000260,false,Rx,0,8,03,03,A4,C0,00,C0,00,00,
62053544,00000260,false,Rx,0,8,01,03,B1,40,00,D0,00,10,
62160612,00000525,false,Rx,0,8,05,00,00,00,00,00,00,00,
62194766,000003F6,false,Rx,0,7,00,07,E0,00,00,C0,01,00,
62298948,00000120,false,Rx,0,8,FC,00,00,00,00,0F,00,00,
62351118,00000525,false,Rx,0,8,05,00,01,00,00,00,00,00,
62375303,000003F6,false,Rx,0,7,00,01,60,00,00,C0,01,00,
62553937,00000260,false,Rx,0,8,02,03,92,C0,00,D0,00,10,
63053912,00000260,false,Rx,0,8,03,03,A4,C0,00,C0,00,00,
63156130,00000525,false,Rx,0,8,05,00,00,00,00,00,00,00,
63195775,000003F6,false,Rx,0,7,00,07,F0,00,00,C0,01,00,
63299307,00000120,false,Rx,0,8,BC,00,00,00,00,00,00,00,
63391688,00000525,false,Rx,0,8,05,00,01,00,00,00,00,00,
63415908,000003F6,false,Rx,0,7,00,01,70,00,00,C0,01,00,
63554251,00000260,false,Rx,0,8,01,03,B1,40,00,D0,00,10,
64054165,00000260,false,Rx,0,8,02,03,92,C0,00,D0,00,10,
64156585,00000525,false,Rx,0,8,05,00,00,00,00,00,00,00,
64194710,000003F6,false,Rx,0,7,00,08,00,00,00,C0,01,00,
64299809,00000120,false,Rx,0,8,7C,10,00,03,00,04,00,08,
64431958,00000525,false,Rx,0,8,05,00,01,00,00,00,00,00,
64455864,000003F6,false,Rx,0,7,00,01,80,00,00,C0,01,00,
64554508,00000260,false,Rx,0,8,03,03,A4,C0,00,C0,00,00,
64609900,000001A1,false,Rx,0,8,00,65,41,FF,FF,FF,FF,FF,
64619245,00000167,false,Rx,0,8,09,06,FF,FF,00,00,00,00,
65054517,00000260,false,Rx,0,8,01,03,B1,40,00,D0,00,10,
65162035,00000525,false,Rx,0,8,05,00,00,00,00,00,00,00,
65200981,000003F6,false,Rx,0,7,00,08,10,00,00,C0,01,00,
65300237,00000120,false,Rx,0,8,FC,00,00,00,00,0F,00,00,
65471889,00000525,false,Rx,0,8,05,00,01,00,00,00,00,00,
65495479,000003F6,false,Rx,0,7,00,01,90,00,00,C0,01,00,
65554861,00000260,false,Rx,0,8,02,03,92,C0,00,D0,00,10,
66055407,00000260,false,Rx,0,8,03,03,A4,C0,00,C0,00,00,
66162363,00000525,false,Rx,0,8,05,00,00,00,00,00,00,00,
66201961,000003F6,false,Rx,0,7,00,08,20,00,00,C0,01,00,
66300301,00000120,false,Rx,0,8,BC,00,00,00,00,00,00,00,
66512429,00000525,false,Rx,0,8,05,00,01,00,00,00,00,00,
66534304,000003F6,false,Rx,0,7,00,01,A0,00,00,C0,01,00,
66555186,00000260,false,Rx,0,8,01,03,B1,40,00,D0,00,10,
67055584,00000260,false,Rx,0,8,02,03,92,C0,00,D0,00,10,
67162720,00000525,false,Rx,0,8,05,00,00,00,00,00,00,00,
67202275,000003F6,false,Rx,0,7,00,08,30,00,00,C0,01,00,
67300641,00000120,false,Rx,0,8,7C,10,00,03,00,04,00,08,
67552126,00000525,false,Rx,0,8,05,00,01,00,00,00,00,00,
67555869,00000260,false,Rx,0,8,03,03,A4,C0,00,C0,00,00,
67576041,000003F6,false,Rx,0,7,00,01,B0,00,00,C0,01,00,
68055879,00000260,false,Rx,0,8,01,03,B1,40,00,D0,00,10,
68163334,00000525,false,Rx,0,8,05,00,00,00,00,00,00,00,
68202654,000003F6,false,Rx,0,7,00,08,40,00,00,C0,01,00,
68300989,00000120,false,Rx,0,8,FC,00,00,00,00,0F,00,00,
68555899,00000260,false,Rx,0,8,02,03,92,C0,00,D0,00,10,
68592100,00000525,false,Rx,0,8,05,00,01,00,00,00,00,00,
68615448,000003F6,false,Rx,0,7,00,01,C0,00,00,C0,01,00,
69056216,00000260,false,Rx,0,8,03,03,A4,C0,00,C0,00,00,
69163740,00000525,false,Rx,0,8,05,00,00,00,00,00,00,00,
69203658,000003F6,false,Rx,0,7,00,08,50,00,00,C0,01,00,
69218670,000003E5,false,Rx,0,6,00,01,00,00,00,00,00,00,
69300476,00000120,false,Rx,0,8,BC,00,00,00,00,00,00,00,
69345968,000003F6,false,Rx,0,7,00,01,C0,00,00,C0,01,00,
69423525,000003E5,false,Rx,0,6,00,00,00,00,00,00,00,00,
69552451,000003F6,false,Rx,0,7,00,01,D0,00,00,C0,01,00,
69556194,00000260,false,Rx,0,8,01,03,B1,40,00,D0,00,10,
69615773,000001A1,false,Rx,0,8,80,E0,C6,FF,FF,FF,FF,FF,
69626319,00000167,false,Rx,0,8,09,06,FF,FF,80,E0,00,00,
69632679,00000525,false,Rx,0,8,05,00,01,00,00,00,00,00,
70056563,00000260,false,Rx,0,8,02,03,92,C0,00,D0,00,10,
70169151,00000525,false,Rx,0,8,05,00,00,00,00,00,00,00,
70209113,000003F6,false,Rx,0,7,00,08,60,00,00,C0,01,00,
70301893,00000120,false,Rx,0,8,7C,10,00,03,00,04,00,08,
70556897,00000260,false,Rx,0,8,03,03,A4,C0,00,C0,00,00,
70592417,000003F6,false,Rx,0,7,00,01,E0,00,00,C0,01,00,
70672907,00000525,false,Rx,0,8,05,00,01,00,00,00,00,00,
71057455,00000260,false,Rx,0,8,01,03,B1,40,00,D0,00,10,
71169496,00000525,false,Rx,0,8,05,00,00,00,00,00,00,00,
71208504,000003F6,false,Rx,0,7,00,08,70,00,00,C0,01,00,
71302678,00000120,false,Rx,0,8,FC,00,00,00,00,0F,00,00,
71557237,00000260,false,Rx,0,8,02,03,92,C0,00,D0,00,10,
71633821,000003F6,false,Rx,0,7,00,01,F0,00,00,C0,01,00,
71711578,000001A1,false,Rx,0,8,00,78,C6,80,00,00,00,00,
71713287,00000525,false,Rx,0,8,05,00,01,00,00,00,00,00,
71722656,00000167,false,Rx,0,8,09,06,FF,FF,80,78,00,00,
72057579,00000260,false,Rx,0,8,03,03,A4,C0,00,C0,00,00,
72174849,00000525,false,Rx,0,8,05,00,00,00,00,00,00,00,
72214240,000003F6,false,Rx,0,7,00,08,80,00,00,C0,01,00,
72302691,00000120,false,Rx,0,8,BC,00,00,00,00,00,00,00,
72360628,000003F6,false,Rx,0,7,00,01,F0,00,00,C0,01,00,
72557575,00000260,false,Rx,0,8,01,03,B1,40,00,D0,00,10,
72568846,000003F6,false,Rx,0,7,00,02,00,00,00,C0,01,00,
72755337,00000525,false,Rx,0,8,05,00,01,00,00,00,00,00,
73056456,00000260,false,Rx,0,8,02,03,92,C0,00,D0,00,10,
73175049,00000525,false,Rx,0,8,05,00,00,00,00,00,00,00,
73214529,000003F6,false,Rx,0,7,00,08,90,00,00,C0,01,00,
73302947,00000120,false,Rx,0,8,7C,10,00,03,00,04,00,08,
73557930,00000260,false,Rx,0,8,03,03,A4,C0,00,C0,00,00,
73609167,000003F6,false,Rx,0,7,00,02,10,00,00,C0,01,00,
73793394,00000525,false,Rx,0,8,05,00,01,00,00,00,00,00,
73812871,000001A1,false,Rx,0,8,80,7F,C6,FF,FF,FF,FF,FF,
73822688,00000167,false,Rx,0,8,09,06,FF,FF,80,7F,00,00,
74058573,00000260,false,Rx,0,8,01,03,B1,40,00,D0,00,10,
74185508,00000525,false,Rx,0,8,05,00,00,00,00,00,00,00,
74223552,000003F6,false,Rx,0,7,00,08,A0,00,00,C0,01,00,
74303680,00000120,false,Rx,0,8,FC,00,00,00,00,0F,00,00,
74557215,00000260,false,Rx,0,8,02,03,92,C0,00,D0,00,10,
74649355,000003F6,false,Rx,0,7,00,02,20,00,00,C0,01,00,
74831631,00000525,false,Rx,0,8,05,00,01,00,00,00,00,00,
75058613,00000260,false,Rx,0,8,03,03,A4,C0,00,C0,00,00,
75186548,00000525,false,Rx,0,8,05,00,00,00,00,00,00,00,
75223933,000003F6,false,Rx,0,7,00,08,B0,00,00,C0,01,00,
75273424,000003F6,false,Rx,0,7,00,02,20,00,00,C0,01,00,
75303680,00000120,false,Rx,0,8,BC,00,00,00,00,00,00,00,
75481456,000003F6,false,Rx,0,7,00,02,30,00,00,C0,01,00,
75558613,00000260,false,Rx,0,8,01,03,B1,40,00,D0,00,10,
75873388,00000525,false,Rx,0,8,05,00,01,00,00,00,00,00,
76059374,00000260,false,Rx,0,8,02,03,92,C0,00,D0,00,10,
76186228,00000525,false,Rx,0,8,05,00,00,00,00,00,00,00,
76224428,000003F6,false,Rx,0,7,00,08,C0,00,00,C0,01,00,
76303091,00000120,false,Rx,0,8,7C,10,00,03,00,04,00,08,
76521695,000003F6,false,Rx,0,7,00,02,40,00,00,C0,01,00,
76559309,00000260,false,Rx,0,8,03,03,A4,C0,00,C0,00,00,
76913865,00000525,false,Rx,0,8,05,00,01,00,00,00,00,00,
77059934,00000260,false,Rx,0,8,01,03,B1,40,00,D0,00,10,
77186554,00000525,false,Rx,0,8,05,00,00,00,00,00,00,00,
77224742,000003F6,false,Rx,0,7,00,08,D0,00,00,C0,01,00,
77304364,00000120,false,Rx,0,8,FC,00,00,00,00,0F,00,00,
77559303,00000260,false,Rx,0,8,02,03,92,C0,00,D0,00,10,
77561308,000003F6,false,Rx,0,7,00,02,50,00,00,C0,01,00,
77953224,00000525,false,Rx,0,8,05,00,01,00,00,00,00,00,
78059610,00000260,false,Rx,0,8,03,03,A4,C0,00,C0,00,00,
78186882,00000525,false,Rx,0,8,05,00,00,00,00,00,00,00,
78225005,000003F6,false,Rx,0,7,00,08,E0,00,00,C0,01,00,
78288672,000003F6,false,Rx,0,7,00,02,50,00,00,C0,01,00,
78304674,00000120,false,Rx,0,8,BC,00,00,00,00,00,00,00,
78497939,000003F6,false,Rx,0,7,00,02,60,00,00,C0,01,00,
78559966,00000260,false,Rx,0,8,01,03,B1,40,00,D0,00,10,
78994075,00000525,false,Rx,0,8,05,00,01,00,00,00,00,00,
79060296,00000260,false,Rx,0,8,02,03,92,C0,00,D0,00,10,
79186911,00000525,false,Rx,0,8,05,00,00,00,00,00,00,00,
79225396,000003F6,false,Rx,0,7,00,08,F0,00,00,C0,01,00,
79305015,00000120,false,Rx,0,8,7C,10,00,03,00,04,00,08,
79538090,000003F6,false,Rx,0,7,00,02,70,00,00,C0,01,00,
79560650,00000260,false,Rx,0,8,03,03,A4,C0,00,C0,00,00,
80034515,00000525,false,Rx,0,8,05,00,01,00,00,00,00,00,
80060305,00000260,false,Rx,0,8,01,03,B1,40,00,D0,00,10,
80187847,00000525,false,Rx,0,8,05,00,00,00,00,00,00,00,
80225783,000003F6,false,Rx,0,7,00,09,00,00,00,C0,01,00,
80305686,00000120,false,Rx,0,8,FC,00,00,00,00,0F,00,00,
80559610,00000260,false,Rx,0,8,02,03,92,C0,00,D0,00,10,
80577784,000003F6,false,Rx,0,7,00,02,80,00,00,C0,01,00,
80815604,000001A1,false,Rx,0,8,00,7F,46,FF,FF,FF,FF,FF,
80827533,00000167,false,Rx,0,8,09,06,FF,FF,00,00,00,00,
81060661,00000260,false,Rx,0,8,03,03,A4,C0,00,C0,00,00,
81074373,00000525,false,Rx,0,8,05,00,01,00,00,00,00,00,
81188651,00000525,false,Rx,0,8,05,00,00,00,00,00,00,00,
81226821,000003F6,false,Rx,0,7,00,09,10,00,00,C0,01,00,
81307068,00000120,false,Rx,0,8,BC,00,00,00,00,00,00,00,
81307079,000003F6,false,Rx,0,7,00,02,80,00,00,C0,01,00,
81514269,000003F6,false,Rx,0,7,00,02,90,00,00,C0,01,00,
81560955,00000260,false,Rx,0,8,01,03,B1,40,00,D0,00,10,
82060968,00000260,false,Rx,0,8,02,03,92,C0,00,D0,00,10,
82114493,00000525,false,Rx,0,8,05,00,01,00,00,00,00,00,
82188644,00000525,false,Rx,0,8,05,00,00,00,00,00,00,00,
82227184,000003F6,false,Rx,0,7,00,09,20,00,00,C0,01,00,
82306381,00000120,false,Rx,0,8,7C,10,00,03,00,04,00,08,
82554145,000003F6,false,Rx,0,7,00,02,A0,00,00,C0,01,00,
82560310,00000260,false,Rx,0,8,03,03,A4,C0,00,C0,00,00,
83061301,00000260,false,Rx,0,8,01,03,B1,40,00,D0,00,10,
83153661,00000525,false,Rx,0,8,05,00,01,00,00,00,00,00,
83190328,00000525,false,Rx,0,8,05,00,00,00,00,00,00,00,
83227452,000003F6,false,Rx,0,7,00,09,30,00,00,C0,01,00,
83307050,00000120,false,Rx,0,8,FC,00,00,00,00,0F,00,00,
83562017,00000260,false,Rx,0,8,02,03,92,C0,00,D0,00,10,
83593485,000003F6,false,Rx,0,7,00,02,B0,00,00,C0,01,00,
84062340,00000260,false,Rx,0,8,03,03,A4,C0,00,C0,00,00,
84195170,00000525,false,Rx,0,8,05,00,01,00,00,00,00,00,
84228023,000003F6,false,Rx,0,7,00,09,40,00,00,C0,01,00,
84307395,00000120,false,Rx,0,8,BC,00,00,00,00,00,00,00,
84561144,00000260,false,Rx,0,8,01,03,B1,40,00,D0,00,10,
84634804,000003F6,false,Rx,0,7,00,02,C0,00,00,C0,01,00,
85063714,00000260,false,Rx,0,8,02,03,92,C0,00,D0,00,10,
85189960,00000525,false,Rx,0,8,05,00,00,00,00,00,00,00,
85228278,000003F6,false,Rx,0,7,00,09,50,00,00,C0,01,00,
85234714,00000525,false,Rx,0,8,05,00,01,00,00,00,00,00,
85307421,00000120,false,Rx,0,8,7C,10,00,03,00,04,00,08,
85562339,00000260,false,Rx,0,8,03,03,A4,C0,00,C0,00,00,
85674881,000003F6,false,Rx,0,7,00,02,D0,00,00,C0,01,00,
85817635,000001A1,false,Rx,0,8,80,E5,C7,1E,40,00,00,00,
85827422,00000167,false,Rx,0,8,09,06,FF,FF,80,E5,00,00,
86063022,00000260,false,Rx,0,8,01,03,B1,40,00,D0,00,10,
86200611,00000525,false,Rx,0,8,05,00,00,00,00,00,00,00,
86239432,000003F6,false,Rx,0,7,00,09,60,00,00,C0,01,00,
86275061,00000525,false,Rx,0,8,05,00,01,00,00,00,00,00,
86308054,00000120,false,Rx,0,8,FC,00,00,00,00,0F,00,00,
86561663,00000260,false,Rx,0,8,02,03,92,C0,00,D0,00,10,
86715225,000003F6,false,Rx,0,7,00,02,E0,00,00,C0,01,00,
87062812,00000260,false,Rx,0,8,03,03,A4,C0,00,C0,00,00,
87200598,00000525,false,Rx,0,8,05,00,00,00,00,00,00,00,
87239021,000003F6,false,Rx,0,7,00,09,70,00,00,C0,01,00,
87308073,00000120,false,Rx,0,8,BC,00,00,00,00,00,00,00,
87315290,00000525,false,Rx,0,8,05,00,01,00,00,00,00,00,
87563042,00000260,false,Rx,0,8,01,03,B1,40,00,D0,00,10,
87755504,000003F6,false,Rx,0,7,00,02,F0,00,00,C0,01,00,
87790573,000003E5,false,Rx,0,6,00,01,00,00,00,00,00,00,
87801793,00000167,false,Rx,0,8,09,06,FF,FF,00,00,00,00,
87972696,000003E5,false,Rx,0,6,00,00,00,00,00,00,00,00,
88063358,00000260,false,Rx,0,8,02,03,92,C0,00,D0,00,10,
88206495,00000525,false,Rx,0,8,05,00,00,00,00,00,00,00,
88242140,000003F6,false,Rx,0,7,00,09,80,00,00,C0,01,00,
88308749,00000120,false,Rx,0,8,7C,10,00,03,00,04,00,08,
88355246,00000525,false,Rx,0,8,05,00,01,00,00,00,00,00,
88563715,00000260,false,Rx,0,8,03,03,A4,C0,00,C0,00,00,
88795444,000003F6,false,Rx,0,7,00,03,00,00,00,C0,01,00,
89031495,000003E5,false,Rx,0,6,00,01,00,00,00,00,00,00,
89063752,00000260,false,Rx,0,8,01,03,B1,40,00,D0,00,10,
89205828,00000525,false,Rx,0,8,05,00,00,00,00,00,00,00,
89215991,000003E5,false,Rx,0,6,00,00,00,00,00,00,00,00,
89243573,000003F6,false,Rx,0,7,00,09,90,00,00,C0,01,00,
89307910,00000120,false,Rx,0,8,FC,00,00,00,00,0F,00,00,
89395797,00000525,false,Rx,0,8,05,00,01,00,00,00,00,00,
89564063,00000260,false,Rx,0,8,02,03,92,C0,00,D0,00,10,
89835381,000003F6,false,Rx,0,7,00,03,10,00,00,C0,01,00,
90064052,00000260,false,Rx,0,8,03,03,A4,C0,00,C0,00,00,
90206681,00000525,false,Rx,0,8,05,00,00,00,00,00,00,00,
90242790,000003F6,false,Rx,0,7,00,09,A0,00,00,C0,01,00,
90309436,00000120,false,Rx,0,8,BC,00,00,00,00,00,00,00,
90434107,00000525,false,Rx,0,8,05,00,01,00,00,00,00,00,
90564396,00000260,false,Rx,0,8,01,03,B1,40,00,D0,00,10,
90876758,000003F6,false,Rx,0,7,00,03,20,00,00,C0,01,00,
91064387,00000260,false,Rx,0,8,02,03,92,C0,00,D0,00,10,
91206763,00000525,false,Rx,0,8,05,00,00,00,00,00,00,00,
91243237,000003F6,false,Rx,0,7,00,09,B0,00,00,C0,01,00,
91309773,00000120,false,Rx,0,8,7C,10,00,03,00,04,00,08,
91475021,00000525,false,Rx,0,8,05,00,01,00,00,00,00,00,
91564746,00000260,false,Rx,0,8,03,03,A4,C0,00,C0,00,00,
91916265,000003F6,false,Rx,0,7,00,03,30,00,00,C0,01,00,
92065089,00000260,false,Rx,0,8,01,03,B1,40,00,D0,00,10,
92207320,00000525,false,Rx,0,8,05,00,00,00,00,00,00,00,
92243130,000003F6,false,Rx,0,7,00,09,C0,00,00,C0,01,00,
92261271,00000131,false,Rx,0,5,81,00,00,00,00,00,00,00,
92263230,00000162,false,Rx,0,7,80,01,16,01,00,2F,00,00,
92280822,00000165,false,Rx,0,4,C8,A0,00,00,00,00,00,00,
92310137,00000120,false,Rx,0,8,FC,00,00,00,00,0F,00,00,
92341891,00000165,false,Rx,0,4,C8,A8,00,00,00,00,00,00,
92393021,00000165,false,Rx,0,4,C8,B0,00,00,00,00,00,00,
92432620,00000165,false,Rx,0,4,C8,B0,30,00,00,00,00,00,
92434192,000001E0,false,Rx,0,5,92,00,A2,00,A0,00,00,00,
92443172,00000131,false,Rx,0,5,83,00,00,00,00,00,00,00,
92445638,00000162,false,Rx,0,7,80,83,16,01,00,2F,00,00,
92516585,00000525,false,Rx,0,8,05,00,01,00,00,00,00,00,
92556197,000001E5,false,Rx,0,7,3F,3F,3F,3F,3F,00,03,00,
92556206,000001A5,false,Rx,0,1,F1,00,00,00,00,00,00,00,
92564087,00000260,false,Rx,0,8,02,03,92,C0,00,D0,00,10,
92819834,000001A1,false,Rx,0,8,00,E5,47,1E,40,00,00,00,
92956498,000003F6,false,Rx,0,7,00,03,40,00,00,C0,01,00,
93066069,00000260,false,Rx,0,8,03,03,A4,C0,00,C0,00,00,
93207070,00000525,false,Rx,0,8,05,00,00,00,00,00,00,00,
93243976,000003F6,false,Rx,0,7,00,09,D0,00,00,C0,01,00,
93310474,00000120,false,Rx,0,8,BC,00,00,00,00,00,00,00,
93556542,00000525,false,Rx,0,8,05,00,01,00,00,00,00,00,
93565756,00000260,false,Rx,0,8,01,03,B1,40,00,D0,00,10,
93996518,000003F6,false,Rx,0,7,00,03,50,00,00,C0,01,00,
94065763,00000260,false,Rx,0,8,02,03,92,C0,00,D0,00,10,
94207823,00000525,false,Rx,0,8,05,00,00,00,00,00,00,00,
94245153,000003F6,false,Rx,0,7,00,09,E0,00,00,C0,01,00,
94310809,00000120,false,Rx,0,8,7C,10,00,03,00,04,00,08,
94565770,00000260,false,Rx,0,8,03,03,A4,C0,00,C0,00,00,
94596222,00000525,false,Rx,0,8,05,00,01,00,00,00,00,00,
95036422,000003F6,false,Rx,0,7,00,03,60,00,00,C0,01,00,
95066091,00000260,false,Rx,0,8,01,03,B1,40,00,D0,00,10,
95208405,00000525,false,Rx,0,8,05,00,00,00,00,00,00,00,
95250435,000003F6,false,Rx,0,7,00,09,F0,00,00,C0,01,00,
95311156,00000120,false,Rx,0,8,FC,00,00,00,00,0F,00,00,
95566888,00000260,false,Rx,0,8,02,03,92,C0,00,D0,00,10,
95635031,00000525,false,Rx,0,8,05,00,01,00,00,00,00,00,
96066791,00000260,false,Rx,0,8,03,03,A4,C0,00,C0,00,00,
96076370,000003F6,false,Rx,0,7,00,03,70,00,00,C0,01,00,
96208752,00000525,false,Rx,0,8,05,00,00,00,00,00,00,00,
96244887,000003F6,false,Rx,0,7,00,0A,00,00,00,C0,01,00,
96311340,00000120,false,Rx,0,8,BC,00,00,00,00,00,00,00,
96566796,00000260,false,Rx,0,8,01,03,B1,40,00,D0,00,10,
96676751,00000525,false,Rx,0,8,05,00,01,00,00,00,00,00,
97067127,00000260,false,Rx,0,8,02,03,92,C0,00,D0,00,10,
97115329,000003F6,false,Rx,0,7,00,03,80,00,00,C0,01,00,
97209077,00000525,false,Rx,0,8,05,00,00,00,00,00,00,00,
97245497,000003F6,false,Rx,0,7,00,0A,10,00,00,C0,01,00,
97312172,00000120,false,Rx,0,8,7C,10,00,03,00,04,00,08,
97343080,00000162,false,Rx,0,7,80,03,16,01,00,2F,00,00,
97344655,000001A2,false,Rx,0,5,01,3F,0E,00,00,00,00,00,
97344664,000001E2,false,Rx,0,7,01,3F,0C,00,00,00,00,00,
97567127,00000260,false,Rx,0,8,03,03,A4,C0,00,C0,00,00,
97716586,00000525,false,Rx,0,8,05,00,01,00,00,00,00,00,
97826711,000001A1,false,Rx,0,8,80,08,C1,FF,FF,FF,FF,FF,
97840040,00000167,false,Rx,0,8,09,06,FF,FF,80,08,00,00,
98067132,00000260,false,Rx,0,8,01,03,B1,40,00,D0,00,10,
98156492,000003F6,false,Rx,0,7,00,03,90,00,00,C0,01,00,
98209840,00000525,false,Rx,0,8,05,00,00,00,00,00,00,00,
98249055,000003F6,false,Rx,0,7,00,0A,20,00,00,C0,01,00,
98312409,00000120,false,Rx,0,8,FC,00,00,00,00,0F,00,00,
98567484,00000260,false,Rx,0,8,02,03,92,C0,00,D0,00,10,
98667122,000001E2,false,Rx,0,7,01,3F,0C,00,01,00,00,00,
98758610,00000525,false,Rx,0,8,05,00,01,00,00,00,00,00,
99067478,00000260,false,Rx,0,8,03,03,A4,C0,00,C0,00,00,
99197159,000003F6,false,Rx,0,7,00,03,A0,00,00,C0,01,00,
99209796,00000525,false,Rx,0,8,05,00,00,00,00,00,00,00,
99249673,000003F6,false,Rx,0,7,00,0A,30,00,00,C0,01,00,
99312848,00000120,false,Rx,0,8,BC,00,00,00,00,00,00,00,
99567810,00000260,false,Rx,0,8,01,03,B1,40,00,D0,00,10,
99651460,000001E2,false,Rx,0,7,01,3F,0C,00,02,00,00,00,
99796389,00000525,false,Rx,0,8,05,00,01,00,00,00,00,00,
100068140,00000260,false,Rx,0,8,02,03,92,C0,00,D0,00,10,
100210485,00000525,false,Rx,0,8,05,00,00,00,00,00,00,00,
100237761,000003F6,false,Rx,0,7,00,03,B0,00,00,C0,01,00,
100250419,000003F6,false,Rx,0,7,00,0A,40,00,00,C0,01,00,
100313249,00000120,false,Rx,0,8,7C,10,00,03,00,04,00,08,
100568164,00000260,false,Rx,0,8,03,03,A4,C0,00,C0,00,00,
100691714,000001E2,false,Rx,0,7,01,3F,0C,00,03,00,00,00,
100835750,00000525,false,Rx,0,8,05,00,01,00,00,00,00,00,
101068155,00000260,false,Rx,0,8,01,03,B1,40,00,D0,00,10,
101212497,00000525,false,Rx,0,8,05,00,00,00,00,00,00,00,
101251845,000003F6,false,Rx,0,7,00,0A,50,00,00,C0,01,00,
101277425,000003F6,false,Rx,0,7,00,03,C0,00,00,C0,01,00,
101313543,00000120,false,Rx,0,8,FC,00,00,00,00,0F,00,00,
101568833,00000260,false,Rx,0,8,02,03,92,C0,00,D0,00,10,
101662192,000001E2,false,Rx,0,7,01,3F,0C,00,04,00,00,00,
101750340,00000165,false,Rx,0,4,C8,B0,40,00,00,00,00,00,
101750363,00000131,false,Rx,0,5,81,00,00,00,00,00,00,00,
101760964,000001E0,false,Rx,0,5,52,00,A2,00,A0,00,00,00,
101775380,00000167,false,Rx,0,8,09,06,FF,FF,00,00,00,00,
101792118,00000162,false,Rx,0,7,80,01,16,01,00,2F,00,00,
101877434,00000525,false,Rx,0,8,05,00,01,00,00,00,00,00,
101893723,000001E5,false,Rx,0,7,3F,3F,3F,3F,3F,40,03,00,
102068835,00000260,false,Rx,0,8,03,03,A4,C0,00,C0,00,00,
102215571,00000525,false,Rx,0,8,05,00,00,00,00,00,00,00,
102255896,000003F6,false,Rx,0,7,00,0A,60,00,00,C0,01,00,
102314276,00000120,false,Rx,0,8,BC,00,00,00,00,00,00,00,
102317297,000003F6,false,Rx,0,7,00,03,D0,00,00,C0,01,00,
102568829,00000260,false,Rx,0,8,01,03,B1,40,00,D0,00,10,
102917945,00000525,false,Rx,0,8,05,00,01,00,00,00,00,00,
103069156,00000260,false,Rx,0,8,02,03,92,C0,00,D0,00,10,
103215976,00000525,false,Rx,0,8,05,00,00,00,00,00,00,00,
103255862,000003F6,false,Rx,0,7,00,0A,70,00,00,C0,01,00,
103314258,00000120,false,Rx,0,8,7C,10,00,03,00,04,00,08,
103357661,000003F6,false,Rx,0,7,00,03,E0,00,00,C0,01,00,
103569178,00000260,false,Rx,0,8,03,03,A4,C0,00,C0,00,00,
103957702,00000525,false,Rx,0,8,05,00,01,00,00,00,00,00,
104069530,00000260,false,Rx,0,8,01,03,B1,40,00,D0,00,10,
104216274,00000525,false,Rx,0,8,05,00,00,00,00,00,00,00,
104255942,000003F6,false,Rx,0,7,00,0A,80,00,00,C0,01,00,
104314961,00000120,false,Rx,0,8,FC,00,00,00,00,0F,00,00,
104402936,000003F6,false,Rx,0,7,00,03,F0,00,00,C0,01,00,
104569572,00000260,false,Rx,0,8,02,03,92,C0,00,D0,00,10,
104829143,000001A1,false,Rx,0,8,00,65,41,FF,FF,FF,FF,FF,
104996926,00000525,false,Rx,0,8,05,00,01,00,00,00,00,00,
105069879,00000260,false,Rx,0,8,03,03,A4,C0,00,C0,00,00,
105216594,00000525,false,Rx,0,8,05,00,00,00,00,00,00,00,
105255869,000003F6,false,Rx,0,7,00,0A,90,00,00,C0,01,00,
105315931,00000120,false,Rx,0,8,BC,00,00,00,00,00,00,00,
105439589,000003F6,false,Rx,0,7,00,04,00,00,00,C0,01,00,
105569862,00000260,false,Rx,0,8,01,03,B1,40,00,D0,00,10,
106038060,00000525,false,Rx,0,8,05,00,01,00,00,00,00,00,
106070910,00000260,false,Rx,0,8,02,03,92,C0,00,D0,00,10,
106216944,00000525,false,Rx,0,8,05,00,00,00,00,00,00,00,
106256533,000003F6,false,Rx,0,7,00,0A,A0,00,00,C0,01,00,
106315590,00000120,false,Rx,0,8,7C,10,00,03,00,04,00,08,
106478377,000003F6,false,Rx,0,7,00,04,10,00,00,C0,01,00,
106570580,00000260,false,Rx,0,8,03,03,A4,C0,00,C0,00,00,
107015937,00000165,false,Rx,0,4,C8,B0,10,00,00,00,00,00,
107070935,00000260,false,Rx,0,8,01,03,B1,40,00,D0,00,10,
107078362,00000525,false,Rx,0,8,05,00,01,00,00,00,00,00,
107196961,000001E5,false,Rx,0,7,3F,3F,42,3F,44,40,17,00,
107218984,00000525,false,Rx,0,8,05,00,00,00,00,00,00,00,
107256962,000003F6,false,Rx,0,7,00,0A,B0,00,00,C0,01,00,
107315931,00000120,false,Rx,0,8,FC,00,00,00,00,0F,00,00,
107518631,000003F6,false,Rx,0,7,00,04,20,00,00,C0,01,00,
107570006,00000260,false,Rx,0,8,02,03,92,C0,00,D0,00,10,
108070941,00000260,false,Rx,0,8,03,03,A4,C0,00,C0,00,00,
108118369,00000525,false,Rx,0,8,05,00,01,00,00,00,00,00,
108218641,00000525,false,Rx,0,8,05,00,00,00,00,00,00,00,
108257318,000003F6,false,Rx,0,7,00,0A,C0,00,00,C0,01,00,
108316615,00000120,false,Rx,0,8,BC,00,00,00,00,00,00,00,
108558235,000003F6,false,Rx,0,7,00,04,30,00,00,C0,01,00,
108571030,00000260,false,Rx,0,8,01,03,B1,40,00,D0,00,10,
109070501,00000260,false,Rx,0,8,02,03,92,C0,00,D0,00,10,
109158898,00000525,false,Rx,0,8,05,00,01,00,00,00,00,00,
109218642,00000525,false,Rx,0,8,05,00,00,00,00,00,00,00,
109258303,000003F6,false,Rx,0,7,00,0A,D0,00,00,C0,01,00,
109317017,00000120,false,Rx,0,8,7C,10,00,03,00,04,00,08,
109571966,00000260,false,Rx,0,8,03,03,A4,C0,00,C0,00,00,
109596785,000003F6,false,Rx,0,7,00,04,40,00,00,C0,01,00,
109826886,000001A1,false,Rx,0,8,80,E0,C6,FF,FF,FF,FF,FF,
109838457,00000167,false,Rx,0,8,09,06,FF,FF,80,E0,00,00,
110071904,00000260,false,Rx,0,8,01,03,B1,40,00,D0,00,10,
110199537,00000525,false,Rx,0,8,05,00,01,00,00,00,00,00,
110219300,00000525,false,Rx,0,8,05,00,00,00,00,00,00,00,
110258254,000003F6,false,Rx,0,7,00,0A,E0,00,00,C0,01,00,
110316933,00000120,false,Rx,0,8,FC,00,00,00,00,0F,00,00,
110571925,00000260,false,Rx,0,8,02,03,92,C0,00,D0,00,10,
110641857,000003F6,false,Rx,0,7,00,04,50,00,00,C0,01,00,
111072274,00000260,false,Rx,0,8,03,03,A4,C0,00,C0,00,00,
111241862,00000525,false,Rx,0,8,05,00,01,00,00,00,00,00,
111259029,000003F6,false,Rx,0,7,00,0A,F0,00,00,C0,01,00,
111317277,00000120,false,Rx,0,8,BC,00,00,00,00,00,00,00,
111572426,00000260,false,Rx,0,8,01,03,B1,40,00,D0,00,10,
111679044,000003F6,false,Rx,0,7,00,04,60,00,00,C0,01,00,
112071599,00000260,false,Rx,0,8,02,03,92,C0,00,D0,00,10,
112220690,00000525,false,Rx,0,8,05,00,00,00,00,00,00,00,
112259605,000003F6,false,Rx,0,7,00,0B,00,00,00,C0,01,00,
112280078,00000525,false,Rx,0,8,05,00,01,00,00,00,00,00,
112316894,00000120,false,Rx,0,8,7C,10,00,03,00,04,00,08,
112572964,00000260,false,Rx,0,8,03,03,A4,C0,00,C0,00,00,
112718981,000003F6,false,Rx,0,7,00,04,70,00,00,C0,01,00,
113072986,00000260,false,Rx,0,8,01,03,B1,40,00,D0,00,10,
113221500,00000525,false,Rx,0,8,05,00,00,00,00,00,00,00,
113259976,000003F6,false,Rx,0,7,00,0B,10,00,00,C0,01,00,
113317303,00000120,false,Rx,0,8,FC,00,00,00,00,0F,00,00,
113319328,00000525,false,Rx,0,8,05,00,01,00,00,00,00,00,
113573287,00000260,false,Rx,0,8,02,03,92,C0,00,D0,00,10,
113759622,000003F6,false,Rx,0,7,00,04,80,00,00,C0,01,00,
114073283,00000260,false,Rx,0,8,03,03,A4,C0,00,C0,00,00,
114221019,00000525,false,Rx,0,8,05,00,00,00,00,00,00,00,
114259974,000003F6,false,Rx,0,7,00,0B,20,00,00,C0,01,00,
114318721,00000120,false,Rx,0,8,BC,00,00,00,00,00,00,00,
114359335,00000525,false,Rx,0,8,05,00,01,00,00,00,00,00,
114573667,00000260,false,Rx,0,8,01,03,B1,40,00,D0,00,10,
114798024,000003F6,false,Rx,0,7,00,04,90,00,00,C0,01,00,
115073632,00000260,false,Rx,0,8,02,03,92,C0,00,D0,00,10,
115221094,00000525,false,Rx,0,8,05,00,00,00,00,00,00,00,
115260294,000003F6,false,Rx,0,7,00,0B,30,00,00,C0,01,00,
115319075,00000120,false,Rx,0,8,7C,10,00,03,00,04,00,08,
115400565,00000525,false,Rx,0,8,05,00,01,00,00,00,00,00,
115573956,00000260,false,Rx,0,8,03,03,A4,C0,00,C0,00,00,
115838836,000003F6,false,Rx,0,7,00,04,A0,00,00,C0,01,00,
116073995,00000260,false,Rx,0,8,01,03,B1,40,00,D0,00,10,
116221375,00000525,false,Rx,0,8,05,00,00,00,00,00,00,00,
116259710,000003F6,false,Rx,0,7,00,0B,40,00,00,C0,01,00,
116319344,00000120,false,Rx,0,8,FC,00,00,00,00,0F,00,00,
116441629,00000525,false,Rx,0,8,05,00,01,00,00,00,00,00,
116574306,00000260,false,Rx,0,8,02,03,92,C0,00,D0,00,10,
116833775,000001A1,false,Rx,0,8,00,E0,46,FF,FF,FF,FF,FF,
116845960,00000167,false,Rx,0,8,09,06,FF,FF,00,00,00,00,
116880084,000003F6,false,Rx,0,7,00,04,B0,00,00,C0,01,00,
117074282,00000260,false,Rx,0,8,03,03,A4,C0,00,C0,00,00,
117226454,00000525,false,Rx,0,8,05,00,00,00,00,00,00,00,
117266143,000003F6,false,Rx,0,7,00,0B,50,00,00,C0,01,00,
117319693,00000120,false,Rx,0,8,BC,00,00,00,00,00,00,00,
117480826,00000525,false,Rx,0,8,05,00,01,00,00,00,00,00,
117574630,00000260,false,Rx,0,8,01,03,B1,40,00,D0,00,10,
117918389,000003F6,false,Rx,0,7,00,04,C0,00,00,C0,01,00,
118022404,00000225,false,Rx,0,5,29,00,40,03,98,00,00,00,
118074971,00000260,false,Rx,0,8,02,03,92,C0,00,D0,00,10,
118134069,00000125,false,Rx,0,8,10,3A,40,20,00,00,20,52,
118136483,0000011F,false,Rx,0,3,30,00,0A,00,00,00,00,00,
118140501,00000125,false,Rx,0,8,21,4D,46,20,46,4D,20,B0,
118154687,00000125,false,Rx,0,8,22,3E,20,45,53,4B,41,20,
118171210,00000125,false,Rx,0,8,23,3C,B0,38,37,2E,35,30,
118186567,00000125,false,Rx,0,8,24,00,00,00,70,39,37,2E,
118201821,00000125,false,Rx,0,8,25,30,30,00,00,00,00,38,
118215934,000002A5,false,Rx,0,8,3E,20,45,53,4B,41,20,3C,
118215945,00000125,false,Rx,0,8,26,37,2E,35,30,00,00,00,
118217370,00000225,false,Rx,0,5,20,20,40,03,BA,00,00,00,
118227222,00000525,false,Rx,0,8,05,00,00,00,00,00,00,00,
118231904,00000125,false,Rx,0,8,27,70,38,37,2E,35,30,00,
118247672,00000125,false,Rx,0,4,28,00,00,70,00,00,00,00,
118266425,000003F6,false,Rx,0,7,00,0B,60,00,00,C0,01,00,
118320242,00000120,false,Rx,0,8,7C,10,00,03,00,04,00,08,
118519880,00000525,false,Rx,0,8,05,00,01,00,00,00,00,00,
118574969,00000260,false,Rx,0,8,03,03,A4,C0,00,C0,00,00,
118960638,000003F6,false,Rx,0,7,00,04,D0,00,00,C0,01,00,
119075311,00000260,false,Rx,0,8,01,03,B1,40,00,D0,00,10,
119227791,00000525,false,Rx,0,8,05,00,00,00,00,00,00,00,
119266866,000003F6,false,Rx,0,7,00,0B,70,00,00,C0,01,00,
119320371,00000120,false,Rx,0,8,FC,00,00,00,00,0F,00,00,
119560360,00000525,false,Rx,0,8,05,00,01,00,00,00,00,00,
119575326,00000260,false,Rx,0,8,02,03,92,C0,00,D0,00,10,
120000572,000003F6,false,Rx,0,7,00,04,E0,00,00,C0,01,00,
120075716,00000260,false,Rx,0,8,03,03,A4,C0,00,C0,00,00,
120228227,00000525,false,Rx,0,8,05,00,00,00,00,00,00,00,
120267432,000003F6,false,Rx,0,7,00,0B,80,00,00,C0,01,00,
120320703,00000120,false,Rx,0,8,BC,00,00,00,00,00,00,00,
120575656,00000260,false,Rx,0,8,01,03,B1,40,00,D0,00,10,
120600563,00000525,false,Rx,0,8,05,00,01,00,00,00,00,00,
120976975,00000225,false,Rx,0,5,29,20,40,03,BA,00,00,00,
121039647,000003F6,false,Rx,0,7,00,04,F0,00,00,C0,01,00,
121069608,00000125,false,Rx,0,8,10,3A,40,20,00,00,20,52,
121073940,00000125,false,Rx,0,8,21,4D,46,20,46,4D,20,B0,
121076324,00000260,false,Rx,0,8,02,03,92,C0,00,D0,00,10,
121089307,00000125,false,Rx,0,8,22,3E,20,45,53,4B,41,20,
121104686,00000125,false,Rx,0,8,23,3C,B0,38,37,2E,35,30,
121120115,00000125,false,Rx,0,8,24,00,00,00,70,39,37,2E,
121134357,00000125,false,Rx,0,8,25,30,30,00,00,00,00,38,
121150759,00000225,false,Rx,0,5,20,20,40,03,BA,00,00,00,
121150781,00000125,false,Rx,0,8,26,37,2E,35,30,00,00,00,
121164730,00000125,false,Rx,0,8,27,70,38,37,2E,35,30,00,
121180174,00000125,false,Rx,0,4,28,00,00,70,00,00,00,00,
121228321,00000525,false,Rx,0,8,05,00,00,00,00,00,00,00,
121267704,000003F6,false,Rx,0,7,00,0B,90,00,00,C0,01,00,
121321389,00000120,false,Rx,0,8,7C,10,00,03,00,04,00,08,
121575593,00000260,false,Rx,0,8,03,03,A4,C0,00,C0,00,00,
121640886,00000525,false,Rx,0,8,05,00,01,00,00,00,00,00,
121831656,000001A1,false,Rx,0,8,80,78,C6,80,00,00,00,00,
121843225,00000167,false,Rx,0,8,09,06,FF,FF,80,78,00,00,
122076394,00000260,false,Rx,0,8,01,03,B1,40,00,D0,00,10,
122079580,000003F6,false,Rx,0,7,00,05,00,00,00,C0,01,00,
122234325,00000525,false,Rx,0,8,05,00,00,00,00,00,00,00,
122273315,000003F6,false,Rx,0,7,00,0B,A0,00,00,C0,01,00,
122322731,00000120,false,Rx,0,8,FC,00,00,00,00,0F,00,00,
122576669,00000260,false,Rx,0,8,02,03,92,C0,00,D0,00,10,
122680077,00000525,false,Rx,0,8,05,00,01,00,00,00,00,00,
123076692,00000260,false,Rx,0,8,03,03,A4,C0,00,C0,00,00,
123120767,000003F6,false,Rx,0,7,00,05,10,00,00,C0,01,00,
123234702,00000525,false,Rx,0,8,05,00,00,00,00,00,00,00,
123273854,000003F6,false,Rx,0,7,00,0B,B0,00,00,C0,01,00,
123322075,00000120,false,Rx,0,8,BC,00,00,00,00,00,00,00,
123577016,00000260,false,Rx,0,8,01,03,B1,40,00,D0,00,10,
123721344,00000525,false,Rx,0,8,05,00,01,00,00,00,00,00,
124011115,00000225,false,Rx,0,5,29,20,40,03,BA,00,00,00,
124077021,00000260,false,Rx,0,8,02,03,92,C0,00,D0,00,10,
124092210,00000125,false,Rx,0,8,10,3A,40,10,00,00,20,52,
124098516,00000125,false,Rx,0,8,21,4D,46,20,46,4D,20,B0,
124114217,00000125,false,Rx,0,8,22,3E,20,45,53,4B,41,20,
124127580,00000125,false,Rx,0,8,23,3C,B0,38,37,2E,35,30,
124146956,00000125,false,Rx,0,8,24,00,00,00,70,39,37,2E,
124159209,00000125,false,Rx,0,8,25,30,30,00,00,00,00,38,
124161276,000003F6,false,Rx,0,7,00,05,20,00,00,C0,01,00,
124174999,00000125,false,Rx,0,8,26,37,2E,35,30,00,00,00,
124183354,000002A5,false,Rx,0,8,20,52,4D,46,20,46,4D,20,
124185507,00000225,false,Rx,0,5,20,10,40,03,98,00,00,00,
124190384,00000125,false,Rx,0,8,27,70,38,37,2E,35,30,00,
124205318,00000125,false,Rx,0,4,28,00,00,70,00,00,00,00,
124221002,00000167,false,Rx,0,8,09,06,FF,FF,00,00,00,00,
124242153,00000525,false,Rx,0,8,05,00,00,00,00,00,00,00,
124280237,000003F6,false,Rx,0,7,00,0B,C0,00,00,C0,01,00,
124322401,00000120,false,Rx,0,8,7C,10,00,03,00,04,00,08,
124577818,00000260,false,Rx,0,8,03,03,A4,C0,00,C0,00,00,
124761311,00000525,false,Rx,0,8,05,00,01,00,00,00,00,00,
125077419,00000260,false,Rx,0,8,01,03,B1,40,00,D0,00,10,
125200679,000003F6,false,Rx,0,7,00,05,30,00,00,C0,01,00,
125242881,00000525,false,Rx,0,8,05,00,00,00,00,00,00,00,
125280475,000003F6,false,Rx,0,7,00,0B,D0,00,00,C0,01,00,
125322753,00000120,false,Rx,0,8,FC,00,00,00,00,0F,00,00,
125577335,00000260,false,Rx,0,8,02,03,92,C0,00,D0,00,10,
125801309,00000525,false,Rx,0,8,05,00,01,00,00,00,00,00,
126077723,00000260,false,Rx,0,8,03,03,A4,C0,00,C0,00,00,
126239814,000003F6,false,Rx,0,7,00,05,40,00,00,C0,01,00,
126241140,00000525,false,Rx,0,8,05,00,00,00,00,00,00,00,
126280807,000003F6,false,Rx,0,7,00,0B,E0,00,00,C0,01,00,
126323099,00000120,false,Rx,0,8,BC,00,00,00,00,00,00,00,
126578054,00000260,false,Rx,0,8,01,03,B1,40,00,D0,00,10,
126840581,00000525,false,Rx,0,8,05,00,01,00,00,00,00,00,
127078380,00000260,false,Rx,0,8,02,03,92,C0,00,D0,00,10,
127243205,00000525,false,Rx,0,8,05,00,00,00,00,00,00,00,
127280379,000003F6,false,Rx,0,7,00,0B,F0,00,00,C0,01,00,
127283100,000003F6,false,Rx,0,7,00,05,50,00,00,C0,01,00,
127324140,00000120,false,Rx,0,8,7C,10,00,03,00,04,00,08,
127578409,00000260,false,Rx,0,8,03,03,A4,C0,00,C0,00,00,
127881796,00000525,false,Rx,0,8,05,00,01,00,00,00,00,00,
128078782,00000260,false,Rx,0,8,01,03,B1,40,00,D0,00,10,
128241922,00000525,false,Rx,0,8,05,00,00,00,00,00,00,00,
128281775,000003F6,false,Rx,0,7,00,0C,00,00,00,C0,01,00,
128320604,000003F6,false,Rx,0,7,00,05,60,00,00,C0,01,00,
128323725,00000120,false,Rx,0,8,FC,00,00,00,00,0F,00,00,
128578783,00000260,false,Rx,0,8,02,03,92,C0,00,D0,00,10,
128840189,000001A1,false,Rx,0,8,00,78,46,80,00,00,00,00,
128921962,00000525,false,Rx,0,8,05,00,01,00,00,00,00,00,
129079070,00000260,false,Rx,0,8,03,03,A4,C0,00,C0,00,00,
129244081,00000525,false,Rx,0,8,05,00,00,00,00,00,00,00,
129282123,000003F6,false,Rx,0,7,00,0C,10,00,00,C0,01,00,
129324796,00000120,false,Rx,0,8,BC,00,00,00,00,00,00,00,
129360539,000003F6,false,Rx,0,7,00,05,70,00,00,C0,01,00,
129579085,00000260,false,Rx,0,8,01,03,B1,40,00,D0,00,10,
129964040,00000525,false,Rx,0,8,05,00,01,00,00,00,00,00,
130079425,00000260,false,Rx,0,8,02,03,92,C0,00,D0,00,10,
130244234,00000525,false,Rx,0,8,05,00,00,00,00,00,00,00,
130282210,000003F6,false,Rx,0,7,00,0C,20,00,00,C0,01,00,
130324517,00000120,false,Rx,0,8,7C,10,00,03,00,04,00,08,
130401967,000003F6,false,Rx,0,7,00,05,80,00,00,C0,01,00,
130579801,00000260,false,Rx,0,8,03,03,A4,C0,00,C0,00,00,
131002294,00000525,false,Rx,0,8,05,00,01,00,00,00,00,00,
131079747,00000260,false,Rx,0,8,01,03,B1,40,00,D0,00,10,
131244560,00000525,false,Rx,0,8,05,00,00,00,00,00,00,00,
131282784,000003F6,false,Rx,0,7,00,0C,30,00,00,C0,01,00,
131324854,00000120,false,Rx,0,8,FC,00,00,00,00,0F,00,00,
131442531,000003F6,false,Rx,0,7,00,05,90,00,00,C0,01,00,
131579758,00000260,false,Rx,0,8,02,03,92,C0,00,D0,00,10,
131709064,00000125,false,Rx,0,2,01,00,00,00,00,00,00,00,
132042287,00000525,false,Rx,0,8,05,00,01,00,00,00,00,00,
132080096,00000260,false,Rx,0,8,03,03,A4,C0,00,C0,00,00,
132243895,00000525,false,Rx,0,8,05,00,00,00,00,00,00,00,
132282869,000003F6,false,Rx,0,7,00,0C,40,00,00,C0,01,00,
132325481,00000120,false,Rx,0,8,BC,00,00,00,00,00,00,00,
132482792,000003F6,false,Rx,0,7,00,05,A0,00,00,C0,01,00,
132580445,00000260,false,Rx,0,8,01,03,B1,40,00,D0,00,10,
133080432,00000260,false,Rx,0,8,02,03,92,C0,00,D0,00,10,
133081535,00000525,false,Rx,0,8,05,00,01,00,00,00,00,00,
133245270,00000525,false,Rx,0,8,05,00,00,00,00,00,00,00,
133283926,000003F6,false,Rx,0,7,00,0C,50,00,00,C0,01,00,
133325390,00000120,false,Rx,0,8,7C,10,00,03,00,04,00,08,
133521968,000003F6,false,Rx,0,7,00,05,B0,00,00,C0,01,00,
133580792,00000260,false,Rx,0,8,03,03,A4,C0,00,C0,00,00,
133834924,000001A1,false,Rx,0,8,80,7F,C6,FF,FF,FF,FF,FF,
133858844,00000167,false,Rx,0,8,09,06,FF,FF,80,7F,00,00,
134081196,00000260,false,Rx,0,8,01,03,B1,40,00,D0,00,10,
134122874,00000525,false,Rx,0,8,05,00,01,00,00,00,00,00,
134246756,00000525,false,Rx,0,8,05,00,00,00,00,00,00,00,
134286478,000003F6,false,Rx,0,7,00,0C,60,00,00,C0,01,00,
134326209,00000120,false,Rx,0,8,FC,00,00,00,00,0F,00,00,
134560732,000003F6,false,Rx,0,7,00,05,C0,00,00,C0,01,00,
134581202,00000260,false,Rx,0,8,02,03,92,C0,00,D0,00,10,
135081185,00000260,false,Rx,0,8,03,03,A4,C0,00,C0,00,00,
135162708,00000525,false,Rx,0,8,05,00,01,00,00,00,00,00,
135246835,00000525,false,Rx,0,8,05,00,00,00,00,00,00,00,
135286589,000003F6,false,Rx,0,7,00,0C,70,00,00,C0,01,00,
135326563,00000120,false,Rx,0,8,BC,00,00,00,00,00,00,00,
135581489,00000260,false,Rx,0,8,01,03,B1,40,00,D0,00,10,
135602606,000003F6,false,Rx,0,7,00,05,D0,00,00,C0,01,00,
136081506,00000260,false,Rx,0,8,02,03,92,C0,00,D0,00,10,
136203045,00000525,false,Rx,0,8,05,00,01,00,00,00,00,00,
136248315,00000525,false,Rx,0,8,05,00,00,00,00,00,00,00,
136287345,000003F6,false,Rx,0,7,00,0C,80,00,00,C0,01,00,
136326860,00000120,false,Rx,0,8,7C,10,00,03,00,04,00,08,
136582156,00000260,false,Rx,0,8,03,03,A4,C0,00,C0,00,00,
136643187,000003F6,false,Rx,0,7,00,05,E0,00,00,C0,01,00,
137082829,00000260,false,Rx,0,8,01,03,B1,40,00,D0,00,10,
137243283,00000525,false,Rx,0,8,05,00,01,00,00,00,00,00,
137249650,00000525,false,Rx,0,8,05,00,00,00,00,00,00,00,
137289643,000003F6,false,Rx,0,7,00,0C,90,00,00,C0,01,00,
137327204,00000120,false,Rx,0,8,FC,00,00,00,00,0F,00,00,
137581354,00000260,false,Rx,0,8,02,03,92,C0,00,D0,00,10,
137681992,000003F6,false,Rx,0,7,00,05,F0,00,00,C0,01,00,
138082332,00000260,false,Rx,0,8,03,03,A4,C0,00,C0,00,00,
138285184,00000525,false,Rx,0,8,05,00,01,00,00,00,00,00,
138288144,000003F6,false,Rx,0,7,00,0C,A0,00,00,C0,01,00,
138327638,00000120,false,Rx,0,8,BC,00,00,00,00,00,00,00,
138583177,00000260,false,Rx,0,8,01,03,B1,40,00,D0,00,10,
138724082,000003F6,false,Rx,0,7,00,06,00,00,00,C0,01,00,
139082816,00000260,false,Rx,0,8,02,03,92,C0,00,D0,00,10,
139250073,00000525,false,Rx,0,8,05,00,00,00,00,00,00,00,
139288715,000003F6,false,Rx,0,7,00,0C,B0,00,00,C0,01,00,
139325171,00000525,false,Rx,0,8,05,00,01,00,00,00,00,00,
139327883,00000120,false,Rx,0,8,7C,10,00,03,00,04,00,08,
139582816,00000260,false,Rx,0,8,03,03,A4,C0,00,C0,00,00,
139764699,000003F6,false,Rx,0,7,00,06,10,00,00,C0,01,00,
139813861,00000265,false,Rx,0,4,A0,00,00,00,00,00,00,00,
139854506,00000265,false,Rx,0,4,A4,10,00,01,00,00,00,00,
140083495,00000260,false,Rx,0,8,01,03,B1,40,00,D0,00,10,
140250702,00000525,false,Rx,0,8,05,00,00,00,00,00,00,00,
140294400,000003F6,false,Rx,0,7,00,0C,C0,00,00,C0,01,00,
140328598,00000120,false,Rx,0,8,FC,00,00,00,00,0F,00,00,
140364399,00000525,false,Rx,0,8,05,00,01,00,00,00,00,00,
140582419,00000260,false,Rx,0,8,02,03,92,C0,00,D0,00,10,
140804393,000003F6,false,Rx,0,7,00,06,20,00,00,C0,01,00,
140843110,000001A1,false,Rx,0,8,00,7F,46,FF,FF,FF,FF,FF,
140855184,00000167,false,Rx,0,8,09,06,FF,FF,00,00,00,00,
141083295,00000260,false,Rx,0,8,03,03,A4,C0,00,C0,00,00,
141257014,00000525,false,Rx,0,8,05,00,00,00,00,00,00,00,
141295640,000003F6,false,Rx,0,7,00,0C,D0,00,00,C0,01,00,
141328910,00000120,false,Rx,0,8,BC,00,00,00,00,00,00,00,
141403990,00000525,false,Rx,0,8,05,00,01,00,00,00,00,00,
141584860,00000260,false,Rx,0,8,01,03,B1,40,00,D0,00,10,
141842729,000003F6,false,Rx,0,7,00,06,30,00,00,C0,01,00,
142083388,00000260,false,Rx,0,8,02,03,92,C0,00,D0,00,10,
142257578,00000525,false,Rx,0,8,05,00,00,00,00,00,00,00,
142297224,000003F6,false,Rx,0,7,00,0C,E0,00,00,C0,01,00,
142328011,00000120,false,Rx,0,8,7C,10,00,03,00,04,00,08,
142442720,00000525,false,Rx,0,8,05,00,01,00,00,00,00,00,
142583088,00000260,false,Rx,0,8,03,03,A4,C0,00,C0,00,00,
142882996,000003F6,false,Rx,0,7,00,06,40,00,00,C0,01,00,
143084184,00000260,false,Rx,0,8,01,03,B1,40,00,D0,00,10,
143257920,00000525,false,Rx,0,8,05,00,00,00,00,00,00,00,
143295080,000003F6,false,Rx,0,7,00,0C,F0,00,00,C0,01,00,
143329595,00000120,false,Rx,0,8,FC,00,00,00,00,0F,00,00,
143482968,00000525,false,Rx,0,8,05,00,01,00,00,00,00,00,
143584534,00000260,false,Rx,0,8,02,03,92,C0,00,D0,00,10,
143923147,000003F6,false,Rx,0,7,00,06,50,00,00,C0,01,00,
144084535,00000260,false,Rx,0,8,03,03,A4,C0,00,C0,00,00,
144258274,00000525,false,Rx,0,8,05,00,00,00,00,00,00,00,
144295644,000003F6,false,Rx,0,7,00,0D,00,00,00,C0,01,00,
144329931,00000120,false,Rx,0,8,BC,00,00,00,00,00,00,00,
144523288,00000525,false,Rx,0,8,05,00,01,00,00,00,00,00,
144584860,00000260,false,Rx,0,8,01,03,B1,40,00,D0,00,10,
144963024,000003F6,false,Rx,0,7,00,06,60,00,00,C0,01,00,
145084149,00000260,false,Rx,0,8,02,03,92,C0,00,D0,00,10,
145258594,00000525,false,Rx,0,8,05,00,00,00,00,00,00,00,
145296841,000003F6,false,Rx,0,7,00,0D,10,00,00,C0,01,00,
145330257,00000120,false,Rx,0,8,7C,10,00,03,00,04,00,08,
145562958,00000525,false,Rx,0,8,05,00,01,00,00,00,00,00,
145585945,00000260,false,Rx,0,8,03,03,A4,C0,00,C0,00,00,
145840325,000001A1,false,Rx,0,8,80,83,C6,FF,FF,FF,FF,FF,
145852498,00000167,false,Rx,0,8,09,06,FF,FF,80,83,00,00,
146005679,000003F6,false,Rx,0,7,00,06,70,00,00,C0,01,00,
146085548,00000260,false,Rx,0,8,01,03,B1,40,00,D0,00,10,
146263312,00000525,false,Rx,0,8,05,00,00,00,00,00,00,00,
146302079,000003F6,false,Rx,0,7,00,0D,20,00,00,C0,01,00,
146330943,00000120,false,Rx,0,8,FC,00,00,00,00,0F,00,00,
146587325,00000260,false,Rx,0,8,02,03,92,C0,00,D0,00,10,
146603578,00000525,false,Rx,0,8,05,00,01,00,00,00,00,00,
147044376,000003F6,false,Rx,0,7,00,06,80,00,00,C0,01,00,
147085906,00000260,false,Rx,0,8,03,03,A4,C0,00,C0,00,00,
147263670,00000525,false,Rx,0,8,05,00,00,00,00,00,00,00,
147302915,000003F6,false,Rx,0,7,00,0D,30,00,00,C0,01,00,
147330959,00000120,false,Rx,0,8,BC,00,00,00,00,00,00,00,
147585889,00000260,false,Rx,0,8,01,03,B1,40,00,D0,00,10,
147645291,00000525,false,Rx,0,8,05,00,01,00,00,00,00,00,
148084526,000003F6,false,Rx,0,7,00,06,90,00,00,C0,01,00,
148086545,00000260,false,Rx,0,8,02,03,92,C0,00,D0,00,10,
148264491,00000525,false,Rx,0,8,05,00,00,00,00,00,00,00,
148302954,000003F6,false,Rx,0,7,00,0D,40,00,00,C0,01,00,
148331289,00000120,false,Rx,0,8,7C,10,00,03,00,04,00,08,
148586607,00000260,false,Rx,0,8,03,03,A4,C0,00,C0,00,00,
148684590,00000525,false,Rx,0,8,05,00,01,00,00,00,00,00,
149086564,00000260,false,Rx,0,8,01,03,B1,40,00,D0,00,10,
149124679,000003F6,false,Rx,0,7,00,06,A0,00,00,C0,01,00,
149264613,00000525,false,Rx,0,8,05,00,00,00,00,00,00,00,
149302327,000003F6,false,Rx,0,7,00,0D,50,00,00,C0,01,00,
149331999,00000120,false,Rx,0,8,FC,00,00,00,00,0F,00,00,
149586923,00000260,false,Rx,0,8,02,03,92,C0,00,D0,00,10,
149649661,000000A4,false,Rx,0,8,10,44,10,00,00,00,20,20,
149652162,0000009F,false,Rx,0,3,30,00,0A,00,00,00,00,00,
149654772,000000A4,false,Rx,0,8,21,20,20,20,20,20,20,20,
149670497,000000A4,false,Rx,0,8,22,20,20,20,20,20,20,20,
149685235,000000A4,false,Rx,0,8,23,20,20,20,20,20,20,20,
149701924,000000A4,false,Rx,0,8,24,20,20,20,20,20,20,20,
149717331,000000A4,false,Rx,0,8,25,20,20,20,20,20,20,59,
149724936,00000525,false,Rx,0,8,05,00,01,00,00,00,00,00,
149731158,000000A4,false,Rx,0,8,26,20,20,20,20,20,20,20,
149747983,000000A4,false,Rx,0,8,27,20,20,20,20,20,20,20,
149763715,000000A4,false,Rx,0,8,28,20,20,20,20,20,20,20,
149778089,000000A4,false,Rx,0,7,29,20,20,20,20,20,20,00,
150086050,00000260,false,Rx,0,8,03,03,A4,C0,00,C0,00,00,
150165237,000003F6,false,Rx,0,7,00,06,B0,00,00,C0,01,00,
150264689,00000525,false,Rx,0,8,05,00,00,00,00,00,00,00,
150303698,000003F6,false,Rx,0,7,00,0D,60,00,00,C0,01,00,
150332332,00000120,false,Rx,0,8,BC,00,00,00,00,00,00,00,
150587268,00000260,false,Rx,0,8,01,03,B1,40,00,D0,00,10,
150768132,00000525,false,Rx,0,8,05,00,01,00,00,00,00,00,
151087265,00000260,false,Rx,0,8,02,03,92,C0,00,D0,00,10,
151205654,000003F6,false,Rx,0,7,00,06,C0,00,00,C0,01,00,
151267490,00000525,false,Rx,0,8,05,00,00,00,00,00,00,00,
151304379,000003F6,false,Rx,0,7,00,0D,70,00,00,C0,01,00,
151332652,00000120,false,Rx,0,8,7C,10,00,03,00,04,00,08,
151587618,00000260,false,Rx,0,8,03,03,A4,C0,00,C0,00,00,
151805404,00000525,false,Rx,0,8,05,00,01,00,00,00,00,00,
152087965,00000260,false,Rx,0,8,01,03,B1,40,00,D0,00,10,
152243855,000003F6,false,Rx,0,7,00,06,D0,00,00,C0,01,00,
152265482,00000525,false,Rx,0,8,05,00,00,00,00,00,00,00,
152304706,000003F6,false,Rx,0,7,00,0D,80,00,00,C0,01,00,
152331548,00000120,false,Rx,0,8,FC,00,00,00,00,0F,00,00,
152587953,00000260,false,Rx,0,8,02,03,92,C0,00,D0,00,10,
152845598,00000525,false,Rx,0,8,05,00,01,00,00,00,00,00,
152847579,000001A1,false,Rx,0,8,00,83,46,FF,FF,FF,FF,FF,
152859627,00000167,false,Rx,0,8,09,06,FF,FF,00,00,00,00,
153088292,00000260,false,Rx,0,8,03,03,A4,C0,00,C0,00,00,
153270887,00000525,false,Rx,0,8,05,00,00,00,00,00,00,00,
153289322,000003F6,false,Rx,0,7,00,06,E0,00,00,C0,01,00,
153309766,000003F6,false,Rx,0,7,00,0D,90,00,00,C0,01,00,
153333343,00000120,false,Rx,0,8,BC,00,00,00,00,00,00,00,
153588293,00000260,false,Rx,0,8,01,03,B1,40,00,D0,00,10,
153884620,00000525,false,Rx,0,8,05,00,01,00,00,00,00,00,
154087492,00000260,false,Rx,0,8,02,03,92,C0,00,D0,00,10,
154270971,00000525,false,Rx,0,8,05,00,00,00,00,00,00,00,
154310108,000003F6,false,Rx,0,7,00,0D,A0,00,00,C0,01,00,
154328245,000003F6,false,Rx,0,7,00,06,F0,00,00,C0,01,00,
154333685,00000120,false,Rx,0,8,7C,10,00,03,00,04,00,08,
154588631,00000260,false,Rx,0,8,03,03,A4,C0,00,C0,00,00,
154925284,00000525,false,Rx,0,8,05,00,01,00,00,00,00,00,
155088997,00000260,false,Rx,0,8,01,03,B1,40,00,D0,00,10,
155271537,00000525,false,Rx,0,8,05,00,00,00,00,00,00,00,
155311218,000003F6,false,Rx,0,7,00,0D,B0,00,00,C0,01,00,
155333372,00000120,false,Rx,0,8,FC,00,00,00,00,0F,00,00,
155365805,000003F6,false,Rx,0,7,00,07,00,00,00,C0,01,00,
155588986,00000260,false,Rx,0,8,02,03,92,C0,00,D0,00,10,
155862598,000000A4,false,Rx,0,8,10,44,10,00,00,00,44,7A,
155867119,000000A4,false,Rx,0,8,21,77,6F,6E,63,69,65,20,
155882487,000000A4,false,Rx,0,8,22,20,20,20,20,20,20,20,
155897827,000000A4,false,Rx,0,8,23,20,20,20,20,20,20,20,
155913164,000000A4,false,Rx,0,8,24,20,20,20,20,20,20,20,
155927109,000000A4,false,Rx,0,8,25,20,20,20,20,20,20,59,
155943284,000000A4,false,Rx,0,8,26,20,20,20,20,20,20,20,
155957055,000000A4,false,Rx,0,8,27,20,20,20,20,20,20,20,
155966422,00000525,false,Rx,0,8,05,00,01,00,00,00,00,00,
155972706,000000A4,false,Rx,0,8,28,20,20,20,20,20,20,20,
155988214,000000A4,false,Rx,0,7,29,20,20,20,20,20,20,00,
156089334,00000260,false,Rx,0,8,03,03,A4,C0,00,C0,00,00,
156272005,00000525,false,Rx,0,8,05,00,00,00,00,00,00,00,
156310793,000003F6,false,Rx,0,7,00,0D,C0,00,00,C0,01,00,
156334351,00000120,false,Rx,0,8,BC,00,00,00,00,00,00,00,
156406373,000003F6,false,Rx,0,7,00,07,10,00,00,C0,01,00,
156589656,00000260,false,Rx,0,8,01,03,B1,40,00,D0,00,10,
157006418,00000525,false,Rx,0,8,05,00,01,00,00,00,00,00,
157089662,00000260,false,Rx,0,8,02,03,92,C0,00,D0,00,10,
157272720,00000525,false,Rx,0,8,05,00,00,00,00,00,00,00,
157311130,000003F6,false,Rx,0,7,00,0D,D0,00,00,C0,01,00,
157334526,00000120,false,Rx,0,8,7C,10,00,03,00,04,00,08,
157446648,000003F6,false,Rx,0,7,00,07,20,00,00,C0,01,00,
157590009,00000260,false,Rx,0,8,03,03,A4,C0,00,C0,00,00,
157849220,000001A1,false,Rx,0,8,80,E5,C7,1E,40,00,00,00,
157862576,00000167,false,Rx,0,8,09,06,FF,FF,80,E5,00,00,
158046326,00000525,false,Rx,0,8,05,00,01,00,00,00,00,00,
158089984,00000260,false,Rx,0,8,01,03,B1,40,00,D0,00,10,
158272496,00000525,false,Rx,0,8,05,00,00,00,00,00,00,00,
158312515,000003F6,false,Rx,0,7,00,0D,E0,00,00,C0,01,00,
158334391,00000120,false,Rx,0,8,FC,00,00,00,00,0F,00,00,
158486583,000003F6,false,Rx,0,7,00,07,30,00,00,C0,01,00,
158590337,00000260,false,Rx,0,8,02,03,92,C0,00,D0,00,10,
159086895,00000525,false,Rx,0,8,05,00,01,00,00,00,00,00,
159090754,00000260,false,Rx,0,8,03,03,A4,C0,00,C0,00,00,
159108946,000000A4,false,Rx,0,8,10,44,10,00,00,00,5A,61,
159115152,000000A4,false,Rx,0,8,21,70,72,61,73,7A,61,6D,
159129926,000000A4,false,Rx,0,8,22,79,20,6E,20,20,20,20,
159145971,000000A4,false,Rx,0,8,23,20,20,20,20,20,20,20,
159159268,000000A4,false,Rx,0,8,24,20,20,20,20,20,20,20,
159176317,000000A4,false,Rx,0,8,25,20,20,20,20,20,20,20,
159189818,000000A4,false,Rx,0,8,26,20,20,20,20,20,20,20,
159206827,000000A4,false,Rx,0,8,27,20,20,20,20,20,20,20,
159221777,000000A4,false,Rx,0,8,28,20,20,20,20,20,20,20,
159236347,000000A4,false,Rx,0,7,29,20,20,20,20,20,20,00,
159273989,00000525,false,Rx,0,8,05,00,00,00,00,00,00,00,
159314548,000003F6,false,Rx,0,7,00,0D,F0,00,00,C0,01,00,
159336095,00000120,false,Rx,0,8,BC,00,00,00,00,00,00,00,
159526835,000003F6,false,Rx,0,7,00,07,40,00,00,C0,01,00,
159590685,00000260,false,Rx,0,8,01,03,B1,40,00,D0,00,10,
160090684,00000260,false,Rx,0,8,02,03,92,C0,00,D0,00,10,
160126012,00000525,false,Rx,0,8,05,00,01,00,00,00,00,00,
160239500,000000A4,false,Rx,0,8,10,44,10,00,00,00,5A,61,
160245551,000000A4,false,Rx,0,8,21,70,72,61,73,7A,61,6D,
160259308,000000A4,false,Rx,0,8,22,79,20,6E,61,20,77,77,
160274193,00000525,false,Rx,0,8,05,00,00,00,00,00,00,00,
160275263,000000A4,false,Rx,0,8,23,77,2E,72,6D,66,2E,66,
160291853,000000A4,false,Rx,0,8,24,6D,20,20,20,20,20,20,
160306435,000000A4,false,Rx,0,8,25,20,20,20,20,20,20,20,
160313243,000003F6,false,Rx,0,7,00,0E,00,00,00,C0,01,00,
160322131,000000A4,false,Rx,0,8,26,20,20,20,20,20,20,20,
160335125,00000120,false,Rx,0,8,7C,10,00,03,00,04,00,08,
160337110,000000A4,false,Rx,0,8,27,20,20,20,20,20,20,20,
160351131,000000A4,false,Rx,0,8,28,20,20,20,20,20,20,20,
160367534,000000A4,false,Rx,0,7,29,20,20,20,20,20,20,00,
160567002,000003F6,false,Rx,0,7,00,07,50,00,00,C0,01,00,
160591012,00000260,false,Rx,0,8,03,03,A4,C0,00,C0,00,00,
161091351,00000260,false,Rx,0,8,01,03,B1,40,00,D0,00,10,
161167066,00000525,false,Rx,0,8,05,00,01,00,00,00,00,00,
161274365,00000525,false,Rx,0,8,05,00,00,00,00,00,00,00,
161314236,000003F6,false,Rx,0,7,00,0E,10,00,00,C0,01,00,
161336750,00000120,false,Rx,0,8,FC,00,00,00,00,0F,00,00,
161591332,00000260,false,Rx,0,8,02,03,92,C0,00,D0,00,10,
161606736,000003F6,false,Rx,0,7,00,07,60,00,00,C0,01,00,
162091706,00000260,false,Rx,0,8,03,03,A4,C0,00,C0,00,00,
162207405,00000525,false,Rx,0,8,05,00,01,00,00,00,00,00,
162274698,00000525,false,Rx,0,8,05,00,00,00,00,00,00,00,
162313838,000003F6,false,Rx,0,7,00,0E,20,00,00,C0,01,00,
162335476,00000120,false,Rx,0,8,BC,00,00,00,00,00,00,00,
162591694,00000260,false,Rx,0,8,01,03,B1,40,00,D0,00,10,
162647980,000003F6,false,Rx,0,7,00,07,70,00,00,C0,01,00,
163092054,00000260,false,Rx,0,8,02,03,92,C0,00,D0,00,10,
163246353,00000525,false,Rx,0,8,05,00,01,00,00,00,00,00,
163276024,00000525,false,Rx,0,8,05,00,00,00,00,00,00,00,
163314618,000003F6,false,Rx,0,7,00,0E,30,00,00,C0,01,00,
163337123,00000120,false,Rx,0,8,7C,10,00,03,00,04,00,08,
163592043,00000260,false,Rx,0,8,03,03,A4,C0,00,C0,00,00,
163686550,000003F6,false,Rx,0,7,00,07,80,00,00,C0,01,00,
164092370,00000260,false,Rx,0,8,01,03,B1,40,00,D0,00,10,
164286684,00000525,false,Rx,0,8,05,00,01,00,00,00,00,00,
164313833,000003F6,false,Rx,0,7,00,0E,40,00,00,C0,01,00,
164337436,00000120,false,Rx,0,8,FC,00,00,00,00,0F,00,00,
164592373,00000260,false,Rx,0,8,02,03,92,C0,00,D0,00,10,
164727504,000003F6,false,Rx,0,7,00,07,90,00,00,C0,01,00,
164852673,000001A1,false,Rx,0,8,00,E5,47,1E,40,00,00,00,
164865738,00000167,false,Rx,0,8,09,06,FF,FF,00,00,00,00,
165092773,00000260,false,Rx,0,8,03,03,A4,C0,00,C0,00,00,
165276360,00000525,false,Rx,0,8,05,00,00,00,00,00,00,00,
165315578,000003F6,false,Rx,0,7,00,0E,50,00,00,C0,01,00,
165327545,00000525,false,Rx,0,8,05,00,01,00,00,00,00,00,
165337762,00000120,false,Rx,0,8,BC,00,00,00,00,00,00,00,
165593094,00000260,false,Rx,0,8,01,03,B1,40,00,D0,00,10,
165768453,000003F6,false,Rx,0,7,00,07,A0,00,00,C0,01,00,
166092324,00000260,false,Rx,0,8,02,03,92,C0,00,D0,00,10,
166275773,00000525,false,Rx,0,8,05,00,00,00,00,00,00,00,
166316325,000003F6,false,Rx,0,7,00,0E,60,00,00,C0,01,00,
166338129,00000120,false,Rx,0,8,7C,10,00,03,00,04,00,08,
166368759,00000525,false,Rx,0,8,05,00,01,00,00,00,00,00,
166593412,00000260,false,Rx,0,8,03,03,A4,C0,00,C0,00,00,
166806839,000003F6,false,Rx,0,7,00,07,B0,00,00,C0,01,00,
167093386,00000260,false,Rx,0,8,01,03,B1,40,00,D0,00,10,
167280058,00000525,false,Rx,0,8,05,00,00,00,00,00,00,00,
167316578,000003F6,false,Rx,0,7,00,0E,70,00,00,C0,01,00,
167338805,00000120,false,Rx,0,8,FC,00,00,00,00,0F,00,00,
167408032,00000525,false,Rx,0,8,05,00,01,00,00,00,00,00,
167593721,00000260,false,Rx,0,8,02,03,92,C0,00,D0,00,10,
167848040,000003F6,false,Rx,0,7,00,07,C0,00,00,C0,01,00,
168093733,00000260,false,Rx,0,8,03,03,A4,C0,00,C0,00,00,
168277252,00000525,false,Rx,0,8,05,00,00,00,00,00,00,00,
168316941,000003F6,false,Rx,0,7,00,0E,80,00,00,C0,01,00,
168339142,00000120,false,Rx,0,8,BC,00,00,00,00,00,00,00,
168448109,00000525,false,Rx,0,8,05,00,01,00,00,00,00,00,
168594087,00000260,false,Rx,0,8,01,03,B1,40,00,D0,00,10,
168887784,000003F6,false,Rx,0,7,00,07,D0,00,00,C0,01,00,
169094106,00000260,false,Rx,0,8,02,03,92,C0,00,D0,00,10,
169278331,00000525,false,Rx,0,8,05,00,00,00,00,00,00,00,
169317344,000003F6,false,Rx,0,7,00,0E,90,00,00,C0,01,00,
169339505,00000120,false,Rx,0,8,7C,10,00,03,00,04,00,08,
169487786,00000525,false,Rx,0,8,05,00,01,00,00,00,00,00,
169594434,00000260,false,Rx,0,8,03,03,A4,C0,00,C0,00,00,
169849746,000001A1,false,Rx,0,8,80,08,41,FF,FF,FF,FF,FF,
169928251,000003F6,false,Rx,0,7,00,07,E0,00,00,C0,01,00,
170094773,00000260,false,Rx,0,8,01,03,B1,40,00,D0,00,10,
170278356,00000525,false,Rx,0,8,05,00,00,00,00,00,00,00,
170317632,000003F6,false,Rx,0,7,00,0E,A0,00,00,C0,01,00,
170340166,00000120,false,Rx,0,8,FC,00,00,00,00,0F,00,00,
170528030,00000525,false,Rx,0,8,05,00,01,00,00,00,00,00,
170594817,00000260,false,Rx,0,8,02,03,92,C0,00,D0,00,10,
170968494,000003F6,false,Rx,0,7,00,07,F0,00,00,C0,01,00,
171095765,00000260,false,Rx,0,8,03,03,A4,C0,00,C0,00,00,
171280423,00000525,false,Rx,0,8,05,00,00,00,00,00,00,00,
171317965,000003F6,false,Rx,0,7,00,0E,B0,00,00,C0,01,00,
171340484,00000120,false,Rx,0,8,BC,00,00,00,00,00,00,00,
171568194,00000525,false,Rx,0,8,05,00,01,00,00,00,00,00,
171595438,00000260,false,Rx,0,8,01,03,B1,40,00,D0,00,10,
172007569,000003F6,false,Rx,0,7,00,08,00,00,00,C0,01,00,
172094183,00000260,false,Rx,0,8,02,03,92,C0,00,D0,00,10,
172279427,00000525,false,Rx,0,8,05,00,00,00,00,00,00,00,
172318305,000003F6,false,Rx,0,7,00,0E,C0,00,00,C0,01,00,
172339454,00000120,false,Rx,0,8,7C,10,00,03,00,04,00,08,
172595444,00000260,false,Rx,0,8,03,03,A4,C0,00,C0,00,00,
172608813,00000525,false,Rx,0,8,05,00,01,00,00,00,00,00,
173048800,000003F6,false,Rx,0,7,00,08,10,00,00,C0,01,00,
173096475,00000260,false,Rx,0,8,01,03,B1,40,00,D0,00,10,
173281433,00000525,false,Rx,0,8,05,00,00,00,00,00,00,00,
173318652,000003F6,false,Rx,0,7,00,0E,D0,00,00,C0,01,00,
173340851,00000120,false,Rx,0,8,FC,00,00,00,00,0F,00,00,
173595137,00000260,false,Rx,0,8,02,03,92,C0,00,D0,00,10,
173647671,00000525,false,Rx,0,8,05,00,01,00,00,00,00,00,
174088945,000003F6,false,Rx,0,7,00,08,20,00,00,C0,01,00,
174096131,00000260,false,Rx,0,8,03,03,A4,C0,00,C0,00,00,
174282122,00000525,false,Rx,0,8,05,00,00,00,00,00,00,00,
174318993,000003F6,false,Rx,0,7,00,0E,E0,00,00,C0,01,00,
174341198,00000120,false,Rx,0,8,BC,00,00,00,00,00,00,00,
174596133,00000260,false,Rx,0,8,01,03,B1,40,00,D0,00,10,
174689034,00000525,false,Rx,0,8,05,00,01,00,00,00,00,00,
175097169,00000260,false,Rx,0,8,02,03,92,C0,00,D0,00,10,
175128872,000003F6,false,Rx,0,7,00,08,30,00,00,C0,01,00,
175280701,00000525,false,Rx,0,8,05,00,00,00,00,00,00,00,
175319337,000003F6,false,Rx,0,7,00,0E,F0,00,00,C0,01,00,
175341884,00000120,false,Rx,0,8,7C,10,00,03,00,04,00,08,
175596828,00000260,false,Rx,0,8,03,03,A4,C0,00,C0,00,00,
175729272,00000525,false,Rx,0,8,05,00,01,00,00,00,00,00,
176097183,00000260,false,Rx,0,8,01,03,B1,40,00,D0,00,10,
176168182,000003F6,false,Rx,0,7,00,08,40,00,00,C0,01,00,
176279945,00000525,false,Rx,0,8,05,00,00,00,00,00,00,00,
176319897,000003F6,false,Rx,0,7,00,0F,00,00,00,C0,01,00,
176342199,00000120,false,Rx,0,8,FC,00,00,00,00,0F,00,00,
176597382,00000260,false,Rx,0,8,02,03,92,C0,00,D0,00,10,
176768359,00000525,false,Rx,0,8,05,00,01,00,00,00,00,00,
176851093,000001A1,false,Rx,0,8,00,65,41,FF,FF,FF,FF,FF,
177097316,00000260,false,Rx,0,8,03,03,A4,C0,00,C0,00,00,
177210195,000003F6,false,Rx,0,7,00,08,50,00,00,C0,01,00,
177280781,00000525,false,Rx,0,8,05,00,00,00,00,00,00,00,
177319482,000003F6,false,Rx,0,7,00,0F,10,00,00,C0,01,00,
177342555,00000120,false,Rx,0,8,BC,00,00,00,00,00,00,00,
177597505,00000260,false,Rx,0,8,01,03,B1,40,00,D0,00,10,
177809429,00000525,false,Rx,0,8,05,00,01,00,00,00,00,00,
178097890,00000260,false,Rx,0,8,02,03,92,C0,00,D0,00,10,
178249640,000003F6,false,Rx,0,7,00,08,60,00,00,C0,01,00,
178281136,00000525,false,Rx,0,8,05,00,00,00,00,00,00,00,
178320712,000003F6,false,Rx,0,7,00,0F,20,00,00,C0,01,00,
178342902,00000120,false,Rx,0,8,7C,10,00,03,00,04,00,08,
178599898,00000260,false,Rx,0,8,03,03,A4,C0,00,C0,00,00,
178849728,00000525,false,Rx,0,8,05,00,01,00,00,00,00,00,
179096474,00000260,false,Rx,0,8,01,03,B1,40,00,D0,00,10,
179280157,000003E5,false,Rx,0,6,00,01,00,00,00,00,00,00,
179281736,00000525,false,Rx,0,8,05,00,00,00,00,00,00,00,
179289713,000003F6,false,Rx,0,7,00,08,70,00,00,C0,01,00,
179321070,000003F6,false,Rx,0,7,00,0F,30,00,00,C0,01,00,
179343228,00000120,false,Rx,0,8,FC,00,00,00,00,0F,00,00,
179433302,000003E5,false,Rx,0,6,00,00,00,00,00,00,00,00,
179597766,00000260,false,Rx,0,8,02,03,92,C0,00,D0,00,10,
179890721,00000525,false,Rx,0,8,05,00,01,00,00,00,00,00,
180098520,00000260,false,Rx,0,8,03,03,A4,C0,00,C0,00,00,
180257021,000001E0,false,Rx,0,5,92,00,A2,00,A0,00,00,00,
180257045,00000131,false,Rx,0,5,83,00,00,00,00,00,00,00,
180260699,00000162,false,Rx,0,7,80,03,16,01,00,2F,00,00,
180268293,00000165,false,Rx,0,4,C8,B0,30,00,00,00,00,00,
180284169,00000525,false,Rx,0,8,05,00,00,00,00,00,00,00,
180309450,000000A4,false,Rx,0,6,05,10,00,00,00,00,00,00,
180321413,000003F6,false,Rx,0,7,00,0F,40,00,00,C0,01,00,
180329920,000003F6,false,Rx,0,7,00,08,80,00,00,C0,01,00,
180343625,00000120,false,Rx,0,8,BC,00,00,00,00,00,00,00,
180440814,000001E5,false,Rx,0,7,3F,3F,3F,3F,3F,00,03,00,
180598529,00000260,false,Rx,0,8,01,03,B1,40,00,D0,00,10,
180930220,00000525,false,Rx,0,8,05,00,01,00,00,00,00,00,
181098860,00000260,false,Rx,0,8,02,03,92,C0,00,D0,00,10,
181284252,00000525,false,Rx,0,8,05,00,00,00,00,00,00,00,
181321353,000003F6,false,Rx,0,7,00,0F,50,00,00,C0,01,00,
181343905,00000120,false,Rx,0,8,7C,10,00,03,00,04,00,08,
181369927,000003F6,false,Rx,0,7,00,08,90,00,00,C0,01,00,
181598934,00000260,false,Rx,0,8,03,03,A4,C0,00,C0,00,00,
181854173,000001A1,false,Rx,0,8,80,E0,46,FF,FF,FF,FF,FF,
181970510,00000525,false,Rx,0,8,05,00,01,00,00,00,00,00,
182099043,00000260,false,Rx,0,8,01,03,B1,40,00,D0,00,10,
182284529,00000525,false,Rx,0,8,05,00,00,00,00,00,00,00,
182322105,000003F6,false,Rx,0,7,00,0F,60,00,00,C0,01,00,
182344605,00000120,false,Rx,0,8,FC,00,00,00,00,0F,00,00,
182410181,000003F6,false,Rx,0,7,00,08,A0,00,00,C0,01,00,
182598063,00000260,false,Rx,0,8,02,03,92,C0,00,D0,00,10,
183011115,00000525,false,Rx,0,8,05,00,01,00,00,00,00,00,
183099703,00000260,false,Rx,0,8,03,03,A4,C0,00,C0,00,00,
183285274,00000525,false,Rx,0,8,05,00,00,00,00,00,00,00,
183321046,000003F6,false,Rx,0,7,00,0F,70,00,00,C0,01,00,
183344939,00000120,false,Rx,0,8,BC,00,00,00,00,00,00,00,
183451409,000003F6,false,Rx,0,7,00,08,B0,00,00,C0,01,00,
183599943,00000260,false,Rx,0,8,01,03,B1,40,00,D0,00,10,
183911130,000001E2,false,Rx,0,7,01,3F,0C,00,05,00,00,00,
184051506,00000525,false,Rx,0,8,05,00,01,00,00,00,00,00,
184100321,00000260,false,Rx,0,8,02,03,92,C0,00,D0,00,10,
184283850,00000525,false,Rx,0,8,05,00,00,00,00,00,00,00,
184322816,000003F6,false,Rx,0,7,00,0F,80,00,00,C0,01,00,
184345249,00000120,false,Rx,0,8,7C,10,00,03,00,04,00,08,
184373092,00000131,false,Rx,0,5,81,00,00,00,00,00,00,00,
184382897,000001E0,false,Rx,0,5,52,00,A2,00,A0,00,00,00,
184382920,00000165,false,Rx,0,4,C8,B0,40,00,00,00,00,00,
184413157,00000162,false,Rx,0,7,80,01,16,01,00,2F,00,00,
184491058,000003F6,false,Rx,0,7,00,08,C0,00,00,C0,01,00,
184555495,000001E5,false,Rx,0,7,3F,3F,3F,3F,3F,40,03,00,
184600322,00000260,false,Rx,0,8,03,03,A4,C0,00,C0,00,00,
185091332,00000525,false,Rx,0,8,05,00,01,00,00,00,00,00,
185100296,00000260,false,Rx,0,8,01,03,B1,40,00,D0,00,10,
185283898,00000525,false,Rx,0,8,05,00,00,00,00,00,00,00,
185323167,000003F6,false,Rx,0,7,00,0F,90,00,00,C0,01,00,
185345629,00000120,false,Rx,0,8,FC,00,00,00,00,0F,00,00,
185530949,000003F6,false,Rx,0,7,00,08,D0,00,00,C0,01,00,
185600577,00000260,false,Rx,0,8,02,03,92,C0,00,D0,00,10,
185952422,00000165,false,Rx,0,4,C8,B0,10,00,00,00,00,00,
186100569,00000260,false,Rx,0,8,03,03,A4,C0,00,C0,00,00,
186124681,000001E5,false,Rx,0,7,3F,3F,42,3F,44,40,17,00,
186131019,00000525,false,Rx,0,8,05,00,01,00,00,00,00,00,
186284543,00000525,false,Rx,0,8,05,00,00,00,00,00,00,00,
186323503,000003F6,false,Rx,0,7,00,0F,A0,00,00,C0,01,00,
186345948,00000120,false,Rx,0,8,BC,00,00,00,00,00,00,00,
186571518,000003F6,false,Rx,0,7,00,08,E0,00,00,C0,01,00,
186600940,00000260,false,Rx,0,8,01,03,B1,40,00,D0,00,10,
187101226,00000260,false,Rx,0,8,02,03,92,C0,00,D0,00,10,
187169800,00000525,false,Rx,0,8,05,00,01,00,00,00,00,00,
187284863,00000525,false,Rx,0,8,05,00,00,00,00,00,00,00,
187323243,000003F6,false,Rx,0,7,00,0F,B0,00,00,C0,01,00,
187347319,00000120,false,Rx,0,8,7C,10,00,03,00,04,00,08,
187601663,00000260,false,Rx,0,8,03,03,A4,C0,00,C0,00,00,
187609928,000003F6,false,Rx,0,7,00,08,F0,00,00,C0,01,00,
187926493,000003E5,false,Rx,0,6,00,40,00,00,00,00,00,00,
188058600,000003E5,false,Rx,0,6,00,00,00,00,00,00,00,00,
188101661,00000260,false,Rx,0,8,01,03,B1,40,00,D0,00,10,
188210404,00000525,false,Rx,0,8,05,00,01,00,00,00,00,00,
188285207,00000525,false,Rx,0,8,05,00,00,00,00,00,00,00,
188324155,000003F6,false,Rx,0,7,00,0F,C0,00,00,C0,01,00,
188345425,00000120,false,Rx,0,8,FC,00,00,00,00,0F,00,00,
188600728,00000260,false,Rx,0,8,02,03,92,C0,00,D0,00,10,
188650512,000003F6,false,Rx,0,7,00,09,00,00,00,C0,01,00,
189077739,000003E5,false,Rx,0,6,00,40,00,00,00,00,00,00,
189102007,00000260,false,Rx,0,8,03,03,A4,C0,00,C0,00,00,
189229581,000003E5,false,Rx,0,6,00,00,00,00,00,00,00,00,
189250789,00000525,false,Rx,0,8,05,00,01,00,00,00,00,00,
189285864,00000525,false,Rx,0,8,05,00,00,00,00,00,00,00,
189325203,000003F6,false,Rx,0,7,00,0F,D0,00,00,C0,01,00,
189347061,00000120,false,Rx,0,8,BC,00,00,00,00,00,00,00,
189601990,00000260,false,Rx,0,8,01,03,B1,40,00,D0,00,10,
189690410,000003F6,false,Rx,0,7,00,09,10,00,00,C0,01,00,
190102325,00000260,false,Rx,0,8,02,03,92,C0,00,D0,00,10,
190290680,00000525,false,Rx,0,8,05,00,01,00,00,00,00,00,
190323227,000003F6,false,Rx,0,7,00,0F,E0,00,00,C0,01,00,
190347348,00000120,false,Rx,0,8,7C,10,00,03,00,04,00,08,
190602293,00000260,false,Rx,0,8,03,03,A4,C0,00,C0,00,00,
190731934,000003F6,false,Rx,0,7,00,09,20,00,00,C0,01,00,
191102682,00000260,false,Rx,0,8,01,03,B1,40,00,D0,00,10,
191286590,00000525,false,Rx,0,8,05,00,00,00,00,00,00,00,
191326561,000003F6,false,Rx,0,7,00,0F,F0,00,00,C0,01,00,
191330850,00000525,false,Rx,0,8,05,00,01,00,00,00,00,00,
191348343,00000120,false,Rx,0,8,FC,00,00,00,00,0F,00,00,
191602937,00000260,false,Rx,0,8,02,03,92,C0,00,D0,00,10,
191772573,000003F6,false,Rx,0,7,00,09,30,00,00,C0,01,00,
192103010,00000260,false,Rx,0,8,03,03,A4,C0,00,C0,00,00,
192286883,00000525,false,Rx,0,8,05,00,00,00,00,00,00,00,
192325914,000003F6,false,Rx,0,7,00,10,00,00,00,C0,01,00,
192348069,00000120,false,Rx,0,8,BC,00,00,00,00,00,00,00,
192370649,00000525,false,Rx,0,8,05,00,01,00,00,00,00,00,
192603017,00000260,false,Rx,0,8,01,03,B1,40,00,D0,00,10,
192811882,000003F6,false,Rx,0,7,00,09,40,00,00,C0,01,00,
193103337,00000260,false,Rx,0,8,02,03,92,C0,00,D0,00,10,
193288951,00000525,false,Rx,0,8,05,00,00,00,00,00,00,00,
193326308,000003F6,false,Rx,0,7,00,10,10,00,00,C0,01,00,
193348722,00000120,false,Rx,0,8,7C,10,00,03,00,04,00,08,
193412509,00000525,false,Rx,0,8,05,00,01,00,00,00,00,00,
193603809,00000260,false,Rx,0,8,03,03,A4,C0,00,C0,00,00,
193851835,000003F6,false,Rx,0,7,00,09,50,00,00,C0,01,00,
193858593,000001A1,false,Rx,0,8,00,78,46,80,00,00,00,00,
194103670,00000260,false,Rx,0,8,01,03,B1,40,00,D0,00,10,
194289336,00000525,false,Rx,0,8,05,00,00,00,00,00,00,00,
194324691,000003F6,false,Rx,0,7,00,10,20,00,00,C0,01,00,
194348590,00000120,false,Rx,0,8,FC,00,00,00,00,0F,00,00,
194451221,00000525,false,Rx,0,8,05,00,01,00,00,00,00,00,
194603460,00000260,false,Rx,0,8,02,03,92,C0,00,D0,00,10,
194892092,000003F6,false,Rx,0,7,00,09,60,00,00,C0,01,00,
195104393,00000260,false,Rx,0,8,03,03,A4,C0,00,C0,00,00,
195288581,00000525,false,Rx,0,8,05,00,00,00,00,00,00,00,
195326881,000003F6,false,Rx,0,7,00,10,30,00,00,C0,01,00,
195349764,00000120,false,Rx,0,8,BC,00,00,00,00,00,00,00,
195492395,00000525,false,Rx,0,8,05,00,01,00,00,00,00,00,
195604407,00000260,false,Rx,0,8,01,03,B1,40,00,D0,00,10,
195715206,000003E5,false,Rx,0,6,00,40,00,00,00,00,00,00,
195879112,000003E5,false,Rx,0,6,00,00,00,00,00,00,00,00,
195932504,000003F6,false,Rx,0,7,00,09,70,00,00,C0,01,00,
196104690,00000260,false,Rx,0,8,02,03,92,C0,00,D0,00,10,
196288265,00000525,false,Rx,0,8,05,00,00,00,00,00,00,00,
196327297,000003F6,false,Rx,0,7,00,10,40,00,00,C0,01,00,
196350250,00000120,false,Rx,0,8,7C,10,00,03,00,04,00,08,
196534674,00000525,false,Rx,0,8,05,00,01,00,00,00,00,00,
196605063,00000260,false,Rx,0,8,03,03,A4,C0,00,C0,00,00,
196915590,00000225,false,Rx,0,5,20,00,50,02,E4,00,00,00,
196915613,000001E0,false,Rx,0,5,52,00,00,00,00,00,00,00,
196926128,00000125,false,Rx,0,8,10,3A,20,50,00,00,31,35,
196932952,00000125,false,Rx,0,8,21,33,00,00,00,00,00,00,
196947886,00000125,false,Rx,0,8,22,31,35,33,00,00,00,00,
196963326,00000125,false,Rx,0,8,23,00,00,31,35,33,00,00,
196974602,000003F6,false,Rx,0,7,00,09,80,00,00,C0,01,00,
196977285,00000125,false,Rx,0,8,24,00,00,00,00,31,35,33,
196993225,00000125,false,Rx,0,8,25,00,00,00,00,00,00,31,
197008495,00000125,false,Rx,0,8,26,35,33,00,00,00,00,00,
197024423,00000125,false,Rx,0,8,27,00,31,35,33,00,00,00,
197039419,00000125,false,Rx,0,4,28,00,00,00,00,00,00,00,
197069534,000001E5,false,Rx,0,7,3F,3F,3F,3F,3F,40,03,00,
197105017,00000260,false,Rx,0,8,01,03,B1,40,00,D0,00,10,
197288608,00000525,false,Rx,0,8,05,00,00,00,00,00,00,00,
197327602,000003F6,false,Rx,0,7,00,10,50,00,00,C0,01,00,
197350129,00000120,false,Rx,0,8,FC,00,00,00,00,0F,00,00,
197546850,000002A5,false,Rx,0,8,00,00,00,00,00,00,00,00,
197548670,00000265,false,Rx,0,4,00,00,00,00,00,00,00,00,
197572584,00000525,false,Rx,0,8,05,00,01,00,00,00,00,00,
197605678,00000260,false,Rx,0,8,02,03,92,C0,00,D0,00,10,
198012442,000003F6,false,Rx,0,7,00,09,90,00,00,C0,01,00,
198105635,00000260,false,Rx,0,8,03,03,A4,C0,00,C0,00,00,
198288945,00000525,false,Rx,0,8,05,00,00,00,00,00,00,00,
198327988,000003F6,false,Rx,0,7,00,10,60,00,00,C0,01,00,
198350512,00000120,false,Rx,0,8,BC,00,00,00,00,00,00,00,
198587953,00000225,false,Rx,0,5,20,00,10,03,98,00,00,00,
198587965,000001E0,false,Rx,0,5,52,00,A2,00,A0,00,00,00,
198597922,00000125,false,Rx,0,8,10,3A,20,10,00,00,20,52,
198602317,00000125,false,Rx,0,8,21,4D,46,20,46,4D,20,B0,
198605612,00000260,false,Rx,0,8,01,03,B1,40,00,D0,00,10,
198613431,00000525,false,Rx,0,8,05,00,01,00,00,00,00,00,
198618456,00000125,false,Rx,0,8,22,52,4D,46,20,4D,41,58,
198634443,00000125,false,Rx,0,8,23,58,B0,38,37,2E,35,30,
198650703,00000125,false,Rx,0,8,24,00,00,00,70,38,37,2E,
198664142,00000125,false,Rx,0,8,25,35,30,00,00,00,70,38,
198678499,000001E5,false,Rx,0,7,3F,3F,42,3F,44,40,17,00,
198678511,00000125,false,Rx,0,8,26,37,2E,35,30,00,00,00,
198696439,00000125,false,Rx,0,8,27,70,38,37,2E,35,30,00,
198712843,00000125,false,Rx,0,4,28,00,00,70,00,00,00,00,
199052844,000003F6,false,Rx,0,7,00,09,A0,00,00,C0,01,00,
199105534,00000260,false,Rx,0,8,02,03,92,C0,00,D0,00,10,
199187681,000002A5,false,Rx,0,8,20,52,4D,46,20,46,4D,20,
199191058,00000265,false,Rx,0,4,80,00,00,00,00,00,00,00,
199289866,00000525,false,Rx,0,8,05,00,00,00,00,00,00,00,
199328325,000003F6,false,Rx,0,7,00,10,70,00,00,C0,01,00,
199351133,00000120,false,Rx,0,8,7C,10,00,03,00,04,00,08,
199604778,00000260,false,Rx,0,8,03,03,A4,C0,00,C0,00,00,
199653176,00000525,false,Rx,0,8,05,00,01,00,00,00,00,00,
200093040,000003F6,false,Rx,0,7,00,09,B0,00,00,C0,01,00,
200106764,00000260,false,Rx,0,8,01,03,B1,40,00,D0,00,10,
200289396,00000525,false,Rx,0,8,05,00,00,00,00,00,00,00,
200328936,000003F6,false,Rx,0,7,00,10,80,00,00,C0,01,00,
200350481,00000120,false,Rx,0,8,FC,00,00,00,00,0F,00,00,
200605411,00000260,false,Rx,0,8,02,03,92,C0,00,D0,00,10,
200693371,00000525,false,Rx,0,8,05,00,01,00,00,00,00,00,
200980911,00000225,false,Rx,0,5,20,00,20,03,98,00,00,00,
200980936,00000125,false,Rx,0,8,10,3A,20,20,00,00,20,52,
200987646,00000125,false,Rx,0,8,21,4D,46,20,46,4D,20,B0,
201002624,00000125,false,Rx,0,8,22,52,4D,46,20,4D,41,58,
201017712,00000125,false,Rx,0,8,23,58,B0,31,30,32,2E,39,
201032614,00000125,false,Rx,0,8,24,30,00,00,30,38,37,2E,
201047662,00000125,false,Rx,0,8,25,35,30,00,00,00,70,38,
201063488,00000125,false,Rx,0,8,26,37,2E,35,30,00,00,00,
201077251,00000125,false,Rx,0,8,27,70,38,37,2E,35,30,00,
201093084,00000125,false,Rx,0,4,28,00,00,70,00,00,00,00,
201106050,00000260,false,Rx,0,8,03,03,A4,C0,00,C0,00,00,
201133889,000003F6,false,Rx,0,7,00,09,C0,00,00,C0,01,00,
201289453,00000525,false,Rx,0,8,05,00,00,00,00,00,00,00,
201329305,000003F6,false,Rx,0,7,00,10,90,00,00,C0,01,00,
201351815,00000120,false,Rx,0,8,BC,00,00,00,00,00,00,00,
201606358,00000260,false,Rx,0,8,01,03,B1,40,00,D0,00,10,
201733095,00000525,false,Rx,0,8,05,00,01,00,00,00,00,00,
202105484,00000260,false,Rx,0,8,02,03,92,C0,00,D0,00,10,
202173590,000003F6,false,Rx,0,7,00,09,D0,00,00,C0,01,00,
202290576,00000525,false,Rx,0,8,05,00,00,00,00,00,00,00,
202329565,000003F6,false,Rx,0,7,00,10,A0,00,00,C0,01,00,
202352131,00000120,false,Rx,0,8,7C,10,00,03,00,04,00,08,
202605922,00000260,false,Rx,0,8,03,03,A4,C0,00,C0,00,00,
202773927,00000525,false,Rx,0,8,05,00,01,00,00,00,00,00,
203107065,00000260,false,Rx,0,8,01,03,B1,40,00,D0,00,10,
203213875,000003F6,false,Rx,0,7,00,09,E0,00,00,C0,01,00,
203292749,00000525,false,Rx,0,8,05,00,00,00,00,00,00,00,
203329909,000003F6,false,Rx,0,7,00,10,B0,00,00,C0,01,00,
203352504,00000120,false,Rx,0,8,FC,00,00,00,00,0F,00,00,
203607452,00000260,false,Rx,0,8,02,03,92,C0,00,D0,00,10,
203813523,00000525,false,Rx,0,8,05,00,01,00,00,00,00,00,
204107783,00000260,false,Rx,0,8,03,03,A4,C0,00,C0,00,00,
204253555,000003F6,false,Rx,0,7,00,09,F0,00,00,C0,01,00,
204282514,00000265,false,Rx,0,4,84,00,00,00,00,00,00,00,
204291315,00000525,false,Rx,0,8,05,00,00,00,00,00,00,00,
204321066,00000265,false,Rx,0,4,84,10,00,01,00,00,00,00,
204329378,000003F6,false,Rx,0,7,00,10,C0,00,00,C0,01,00,
204352858,00000120,false,Rx,0,8,BC,00,00,00,00,00,00,00,
204504345,00000265,false,Rx,0,4,A4,10,00,01,00,00,00,00,
204524797,00000225,false,Rx,0,5,20,10,20,03,98,00,00,00,
204607777,00000260,false,Rx,0,8,01,03,B1,40,00,D0,00,10,
204853839,00000525,false,Rx,0,8,05,00,01,00,00,00,00,00,
205108077,00000260,false,Rx,0,8,02,03,92,C0,00,D0,00,10,
205291626,00000525,false,Rx,0,8,05,00,00,00,00,00,00,00,
205294381,000003F6,false,Rx,0,7,00,0A,00,00,00,C0,01,00,
205330574,000003F6,false,Rx,0,7,00,10,D0,00,00,C0,01,00,
205353162,00000120,false,Rx,0,8,7C,10,00,03,00,04,00,08,
205608072,00000260,false,Rx,0,8,03,03,A4,C0,00,C0,00,00,
205863437,000001A1,false,Rx,0,8,80,7F,46,FF,FF,FF,FF,FF,
205894743,00000525,false,Rx,0,8,05,00,01,00,00,00,00,00,
206108740,00000260,false,Rx,0,8,01,03,B1,40,00,D0,00,10,
206174316,000003E5,false,Rx,0,6,01,00,00,00,00,00,00,00,
206294074,00000525,false,Rx,0,8,05,00,00,00,00,00,00,00,
206315418,000003E5,false,Rx,0,6,00,00,00,00,00,00,00,00,
206331002,000003F6,false,Rx,0,7,00,10,E0,00,00,C0,01,00,
206334026,000003F6,false,Rx,0,7,00,0A,10,00,00,C0,01,00,
206353522,00000120,false,Rx,0,8,FC,00,00,00,00,0F,00,00,
206607647,00000260,false,Rx,0,8,02,03,92,C0,00,D0,00,10,
206934111,00000525,false,Rx,0,8,05,00,01,00,00,00,00,00,
207109647,00000260,false,Rx,0,8,03,03,A4,C0,00,C0,00,00,
207294068,00000525,false,Rx,0,8,05,00,00,00,00,00,00,00,
207331274,000003F6,false,Rx,0,7,00,10,F0,00,00,C0,01,00,
207354083,00000120,false,Rx,0,8,BC,00,00,00,00,00,00,00,
207374367,000003F6,false,Rx,0,7,00,0A,20,00,00,C0,01,00,
207608787,00000260,false,Rx,0,8,01,03,B1,40,00,D0,00,10,
207974629,00000525,false,Rx,0,8,05,00,01,00,00,00,00,00,
208109121,00000260,false,Rx,0,8,02,03,92,C0,00,D0,00,10,
208292385,00000525,false,Rx,0,8,05,00,00,00,00,00,00,00,
208331636,000003F6,false,Rx,0,7,00,11,00,00,00,C0,01,00,
208354005,00000120,false,Rx,0,8,7C,10,00,03,00,04,00,08,
208413655,000003F6,false,Rx,0,7,00,0A,30,00,00,C0,01,00,
208536744,00000125,false,Rx,0,2,01,00,00,00,00,00,00,00,
208609448,00000260,false,Rx,0,8,03,03,A4,C0,00,C0,00,00,
209013799,00000525,false,Rx,0,8,05,00,01,00,00,00,00,00,
209109832,00000260,false,Rx,0,8,01,03,B1,40,00,D0,00,10,
209293803,00000525,false,Rx,0,8,05,00,00,00,00,00,00,00,
209331997,000003F6,false,Rx,0,7,00,11,10,00,00,C0,01,00,
209355195,00000120,false,Rx,0,8,FC,00,00,00,00,0F,00,00,
209453743,000003F6,false,Rx,0,7,00,0A,40,00,00,C0,01,00,
209609802,00000260,false,Rx,0,8,02,03,92,C0,00,D0,00,10,
210054975,00000525,false,Rx,0,8,05,00,01,00,00,00,00,00,
210110113,00000260,false,Rx,0,8,03,03,A4,C0,00,C0,00,00,
210269197,000003E5,false,Rx,0,6,01,00,00,00,00,00,00,00,
210293344,00000525,false,Rx,0,8,05,00,00,00,00,00,00,00,
210332316,000003F6,false,Rx,0,7,00,11,20,00,00,C0,01,00,
210355234,00000120,false,Rx,0,8,BC,00,00,00,00,00,00,00,
210461315,000003E5,false,Rx,0,6,00,00,00,00,00,00,00,00,
210493969,000003F6,false,Rx,0,7,00,0A,50,00,00,C0,01,00,
210610149,00000260,false,Rx,0,8,01,03,B1,40,00,D0,00,10,
211094101,00000525,false,Rx,0,8,05,00,01,00,00,00,00,00,
211110409,00000260,false,Rx,0,8,02,03,92,C0,00,D0,00,10,
211295774,00000525,false,Rx,0,8,05,00,00,00,00,00,00,00,
211332647,000003F6,false,Rx,0,7,00,11,30,00,00,C0,01,00,
211355315,00000120,false,Rx,0,8,7C,10,00,03,00,04,00,08,
211535004,000003F6,false,Rx,0,7,00,0A,60,00,00,C0,01,00,
211610243,00000260,false,Rx,0,8,03,03,A4,C0,00,C0,00,00,
211612189,000003E5,false,Rx,0,6,01,00,00,00,00,00,00,00,
211784009,000003E5,false,Rx,0,6,00,00,00,00,00,00,00,00,
212110538,00000260,false,Rx,0,8,01,03,B1,40,00,D0,00,10,
212135329,00000525,false,Rx,0,8,05,00,01,00,00,00,00,00,
212294316,00000525,false,Rx,0,8,05,00,00,00,00,00,00,00,
212332866,000003F6,false,Rx,0,7,00,11,40,00,00,C0,01,00,
212355936,00000120,false,Rx,0,8,FC,00,00,00,00,0F,00,00,
212575375,000003F6,false,Rx,0,7,00,0A,70,00,00,C0,01,00,
212611304,00000260,false,Rx,0,8,02,03,92,C0,00,D0,00,10,
213111393,00000260,false,Rx,0,8,03,03,A4,C0,00,C0,00,00,
213175641,00000525,false,Rx,0,8,05,00,01,00,00,00,00,00,
213294369,00000525,false,Rx,0,8,05,00,00,00,00,00,00,00,
213334144,000003F6,false,Rx,0,7,00,11,50,00,00,C0,01,00,
213356217,00000120,false,Rx,0,8,BC,00,00,00,00,00,00,00,
213611426,00000260,false,Rx,0,8,01,03,B1,40,00,D0,00,10,
213614486,000003F6,false,Rx,0,7,00,0A,80,00,00,C0,01,00,
214111506,00000260,false,Rx,0,8,02,03,92,C0,00,D0,00,10,
214214794,00000525,false,Rx,0,8,05,00,01,00,00,00,00,00,
214295099,00000525,false,Rx,0,8,05,00,00,00,00,00,00,00,
214333913,000003F6,false,Rx,0,7,00,11,60,00,00,C0,01,00,
214356588,00000120,false,Rx,0,8,7C,10,00,03,00,04,00,08,
214612082,00000260,false,Rx,0,8,03,03,A4,C0,00,C0,00,00,
214655504,000003F6,false,Rx,0,7,00,0A,90,00,00,C0,01,00,
215111842,00000260,false,Rx,0,8,01,03,B1,40,00,D0,00,10,
215256991,00000525,false,Rx,0,8,05,00,01,00,00,00,00,00,
215295425,00000525,false,Rx,0,8,05,00,00,00,00,00,00,00,
215334368,000003F6,false,Rx,0,7,00,11,70,00,00,C0,01,00,
215357204,00000120,false,Rx,0,8,FC,00,00,00,00,0F,00,00,
215611911,00000260,false,Rx,0,8,02,03,92,C0,00,D0,00,10,
215695444,000003F6,false,Rx,0,7,00,0A,A0,00,00,C0,01,00,
215959643,000003E5,false,Rx,0,6,01,00,00,00,00,00,00,00,
216082482,000003E5,false,Rx,0,6,00,00,00,00,00,00,00,00,
216112403,00000260,false,Rx,0,8,03,03,A4,C0,00,C0,00,00,
216296131,00000525,false,Rx,0,8,05,00,01,00,00,00,00,00,
216334696,000003F6,false,Rx,0,7,00,11,80,00,00,C0,01,00,
216357217,00000120,false,Rx,0,8,BC,00,00,00,00,00,00,00,
216612406,00000260,false,Rx,0,8,01,03,B1,40,00,D0,00,10,
216735793,000003F6,false,Rx,0,7,00,0A,B0,00,00,C0,01,00,
217112597,00000260,false,Rx,0,8,02,03,92,C0,00,D0,00,10,
217296707,00000525,false,Rx,0,8,05,00,00,00,00,00,00,00,
217334138,000003F6,false,Rx,0,7,00,11,90,00,00,C0,01,00,
217336070,00000525,false,Rx,0,8,05,00,01,00,00,00,00,00,
217357978,00000120,false,Rx,0,8,7C,10,00,03,00,04,00,08,
217613078,00000260,false,Rx,0,8,03,03,A4,C0,00,C0,00,00,
217650800,000003E5,false,Rx,0,6,00,00,04,00,00,00,00,00,
217665359,000000DF,false,Rx,0,3,90,00,70,00,00,00,00,00,
217775972,000003F6,false,Rx,0,7,00,0A,C0,00,00,C0,01,00,
217822676,000003E5,false,Rx,0,6,00,00,00,00,00,00,00,00,
217863968,000000DF,false,Rx,0,3,10,00,50,00,00,00,00,00,
217872500,000001A1,false,Rx,0,8,00,83,46,FF,FF,FF,FF,FF,
218112883,00000260,false,Rx,0,8,01,03,B1,40,00,D0,00,10,
218165374,000000DF,false,Rx,0,3,90,00,70,00,00,00,00,00,
218295761,00000525,false,Rx,0,8,05,00,00,00,00,00,00,00,
218335378,000003F6,false,Rx,0,7,00,11,A0,00,00,C0,01,00,
218357965,00000120,false,Rx,0,8,FC,00,00,00,00,0F,00,00,
218376026,00000525,false,Rx,0,8,05,00,01,00,00,00,00,00,
218382440,000000DF,false,Rx,0,3,10,00,50,00,00,00,00,00,
218612909,00000260,false,Rx,0,8,02,03,92,C0,00,D0,00,10,
218665657,000000DF,false,Rx,0,3,90,00,70,00,00,00,00,00,
218669493,000003E5,false,Rx,0,6,00,00,04,00,00,00,00,00,
218674620,00000167,false,Rx,0,8,09,26,FF,FF,00,00,00,00,
218815953,000003F6,false,Rx,0,7,00,0A,D0,00,00,C0,01,00,
218822064,000003E5,false,Rx,0,6,00,00,00,00,00,00,00,00,
218903847,000000DF,false,Rx,0,3,10,00,50,00,00,00,00,00,
219113627,00000260,false,Rx,0,8,03,03,A4,C0,00,C0,00,00,
219195741,000000DF,false,Rx,0,3,90,00,70,00,00,00,00,00,
219296201,00000525,false,Rx,0,8,05,00,00,00,00,00,00,00,
219335707,000003F6,false,Rx,0,7,00,11,B0,00,00,C0,01,00,
219358580,00000120,false,Rx,0,8,BC,00,00,00,00,00,00,00,
219416376,00000525,false,Rx,0,8,05,00,01,00,00,00,00,00,
219423735,000000DF,false,Rx,0,3,10,00,50,00,00,00,00,00,
219576699,000003E5,false,Rx,0,6,00,00,04,00,00,00,00,00,
219604837,00000167,false,Rx,0,8,09,06,FF,FF,00,00,00,00,
219613583,00000260,false,Rx,0,8,01,03,B1,40,00,D0,00,10,
219728535,000003E5,false,Rx,0,6,00,00,00,00,00,00,00,00,
219856212,000003F6,false,Rx,0,7,00,0A,E0,00,00,C0,01,00,
220113329,00000260,false,Rx,0,8,02,03,92,C0,00,D0,00,10,
220296547,00000525,false,Rx,0,8,05,00,00,00,00,00,00,00,
220336054,000003F6,false,Rx,0,7,00,11,C0,00,00,C0,01,00,
220358946,00000120,false,Rx,0,8,7C,10,00,03,00,04,00,08,
220455531,00000525,false,Rx,0,8,05,00,01,00,00,00,00,00,
220614290,00000260,false,Rx,0,8,03,03,A4,C0,00,C0,00,00,
220655489,000003E5,false,Rx,0,6,00,00,04,00,00,00,00,00,
220666404,000000DF,false,Rx,0,3,90,00,70,00,00,00,00,00,
220767102,000003E5,false,Rx,0,6,00,00,00,00,00,00,00,00,
220896401,000003F6,false,Rx,0,7,00,0A,F0,00,00,C0,01,00,
220984531,000000DF,false,Rx,0,3,10,00,50,00,00,00,00,00,
221114491,00000260,false,Rx,0,8,01,03,B1,40,00,D0,00,10,
221166403,000000DF,false,Rx,0,3,90,00,70,00,00,00,00,00,
221296881,00000525,false,Rx,0,8,05,00,00,00,00,00,00,00,
221337438,000003F6,false,Rx,0,7,00,11,D0,00,00,C0,01,00,
221358337,00000120,false,Rx,0,8,FC,00,00,00,00,0F,00,00,
221496794,00000525,false,Rx,0,8,05,00,01,00,00,00,00,00,
221504354,000000DF,false,Rx,0,3,10,00,50,00,00,00,00,00,
221614608,00000260,false,Rx,0,8,02,03,92,C0,00,D0,00,10,
221666687,000000DF,false,Rx,0,3,90,00,70,00,00,00,00,00,
221936501,000003F6,false,Rx,0,7,00,0B,00,00,00,C0,01,00,
222023366,000000DF,false,Rx,0,3,10,00,50,00,00,00,00,00,
222114570,00000260,false,Rx,0,8,03,03,A4,C0,00,C0,00,00,
222166745,000000DF,false,Rx,0,3,90,00,70,00,00,00,00,00,
222184188,000003E5,false,Rx,0,6,00,00,04,00,00,00,00,00,
222187293,00000167,false,Rx,0,8,09,26,FF,FF,00,00,00,00,
222297239,00000525,false,Rx,0,8,05,00,00,00,00,00,00,00,
222305734,000003E5,false,Rx,0,6,00,00,00,00,00,00,00,00,
222337092,000003F6,false,Rx,0,7,00,11,E0,00,00,C0,01,00,
222359650,00000120,false,Rx,0,8,BC,00,00,00,00,00,00,00,
222537167,00000525,false,Rx,0,8,05,00,01,00,00,00,00,00,
222544848,000000DF,false,Rx,0,3,10,00,50,00,00,00,00,00,
222614567,00000260,false,Rx,0,8,01,03,B1,40,00,D0,00,10,
222697130,000000DF,false,Rx,0,3,90,00,70,00,00,00,00,00,
222976991,000003F6,false,Rx,0,7,00,0B,10,00,00,C0,01,00,
223063539,000000DF,false,Rx,0,3,10,00,50,00,00,00,00,00,
223114969,00000260,false,Rx,0,8,02,03,92,C0,00,D0,00,10,
223197100,000000DF,false,Rx,0,3,90,00,70,00,00,00,00,00,
223297487,00000525,false,Rx,0,8,05,00,00,00,00,00,00,00,
223336331,000003F6,false,Rx,0,7,00,11,F0,00,00,C0,01,00,
223359986,00000120,false,Rx,0,8,7C,10,00,03,00,04,00,08,
223384860,000003E5,false,Rx,0,6,00,00,04,00,00,00,00,00,
223386430,00000167,false,Rx,0,8,09,06,FF,FF,00,00,00,00,
223389968,000000DF,false,Rx,0,3,10,00,50,00,00,00,00,00,
223496788,000003E5,false,Rx,0,6,00,00,00,00,00,00,00,00,
223577722,00000525,false,Rx,0,8,05,00,01,00,00,00,00,00,
223614971,00000260,false,Rx,0,8,03,03,A4,C0,00,C0,00,00,
224017263,000003F6,false,Rx,0,7,00,0B,20,00,00,C0,01,00,
224115309,00000260,false,Rx,0,8,01,03,B1,40,00,D0,00,10,
224297905,00000525,false,Rx,0,8,05,00,00,00,00,00,00,00,
224335833,000003F6,false,Rx,0,7,00,12,00,00,00,C0,01,00,
224359592,00000120,false,Rx,0,8,FC,00,00,00,00,0F,00,00,
224615110,00000260,false,Rx,0,8,02,03,92,C0,00,D0,00,10,
224615119,00000525,false,Rx,0,8,05,00,01,00,00,00,00,00,
225056937,000003F6,false,Rx,0,7,00,0B,30,00,00,C0,01,00,
225116268,00000260,false,Rx,0,8,03,03,A4,C0,00,C0,00,00,
225298230,00000525,false,Rx,0,8,05,00,00,00,00,00,00,00,
225338119,000003F6,false,Rx,0,7,00,12,10,00,00,C0,01,00,
225361000,00000120,false,Rx,0,8,BC,00,00,00,00,00,00,00,
225616639,00000260,false,Rx,0,8,01,03,B1,40,00,D0,00,10,
225657488,00000525,false,Rx,0,8,05,00,01,00,00,00,00,00,
226097551,000003F6,false,Rx,0,7,00,0B,40,00,00,C0,01,00,
226115845,00000260,false,Rx,0,8,02,03,92,C0,00,D0,00,10,
226298576,00000525,false,Rx,0,8,05,00,00,00,00,00,00,00,
226338457,000003F6,false,Rx,0,7,00,12,20,00,00,C0,01,00,
226360995,00000120,false,Rx,0,8,7C,10,00,03,00,04,00,08,
226616550,00000260,false,Rx,0,8,03,03,A4,C0,00,C0,00,00,
226697681,00000525,false,Rx,0,8,05,00,01,00,00,00,00,00,
227116278,00000260,false,Rx,0,8,01,03,B1,40,00,D0,00,10,
227137401,000003F6,false,Rx,0,7,00,0B,50,00,00,C0,01,00,
227298854,00000525,false,Rx,0,8,05,00,00,00,00,00,00,00,
227338785,000003F6,false,Rx,0,7,00,12,30,00,00,C0,01,00,
227361353,00000120,false,Rx,0,8,FC,00,00,00,00,0F,00,00,
227375955,00000265,false,Rx,0,4,A4,10,00,0A,00,00,00,00,
227608785,000003E5,false,Rx,0,6,40,00,00,00,00,00,00,00,
227616357,00000260,false,Rx,0,8,02,03,92,C0,00,D0,00,10,
227618694,000000DF,false,Rx,0,3,90,00,70,00,00,00,00,00,
227737497,00000525,false,Rx,0,8,05,00,01,00,00,00,00,00,
227744986,000000DF,false,Rx,0,3,10,00,50,00,00,00,00,00,
227823062,000003E5,false,Rx,0,6,00,00,00,00,00,00,00,00,
228116702,00000260,false,Rx,0,8,03,03,A4,C0,00,C0,00,00,
228119639,000000DF,false,Rx,0,3,90,00,70,00,00,00,00,00,
228177671,000003F6,false,Rx,0,7,00,0B,60,00,00,C0,01,00,
228265531,000000DF,false,Rx,0,3,10,00,50,00,00,00,00,00,
228299207,00000525,false,Rx,0,8,05,00,00,00,00,00,00,00,
228339142,000003F6,false,Rx,0,7,00,12,40,00,00,C0,01,00,
228361771,00000120,false,Rx,0,8,BC,00,00,00,00,00,00,00,
228616134,00000260,false,Rx,0,8,01,03,B1,40,00,D0,00,10,
228619332,000000DF,false,Rx,0,3,90,00,70,00,00,00,00,00,
228778341,00000525,false,Rx,0,8,05,00,01,00,00,00,00,00,
228784273,000000DF,false,Rx,0,3,10,00,50,00,00,00,00,00,
229117250,00000260,false,Rx,0,8,02,03,92,C0,00,D0,00,10,
229119191,000000DF,false,Rx,0,3,90,00,70,00,00,00,00,00,
229217997,000003F6,false,Rx,0,7,00,0B,70,00,00,C0,01,00,
229299554,00000525,false,Rx,0,8,05,00,00,00,00,00,00,00,
229307099,000000DF,false,Rx,0,3,10,00,50,00,00,00,00,00,
229339490,000003F6,false,Rx,0,7,00,12,50,00,00,C0,01,00,
229362413,00000120,false,Rx,0,8,7C,10,00,03,00,04,00,08,
229617359,00000260,false,Rx,0,8,03,03,A4,C0,00,C0,00,00,
229620014,000000DF,false,Rx,0,3,90,00,70,00,00,00,00,00,
229789620,000003E5,false,Rx,0,6,00,00,00,00,00,04,00,00,
229818996,00000525,false,Rx,0,8,05,00,01,00,00,00,00,00,
229825273,000000DF,false,Rx,0,3,10,00,50,00,00,00,00,00,
229872496,000001A1,false,Rx,0,8,80,08,41,FF,FF,FF,FF,FF,
229910945,000003E5,false,Rx,0,6,00,00,00,00,00,00,00,00,
230116495,00000260,false,Rx,0,8,01,03,B1,40,00,D0,00,10,
230119364,000000DF,false,Rx,0,3,90,00,70,00,00,00,00,00,
230258537,000003F6,false,Rx,0,7,00,0B,80,00,00,C0,01,00,
230300200,00000525,false,Rx,0,8,05,00,00,00,00,00,00,00,
230339806,000003F6,false,Rx,0,7,00,12,60,00,00,C0,01,00,
230345264,000000DF,false,Rx,0,3,10,00,50,00,00,00,00,00,
230362695,00000120,false,Rx,0,8,FC,00,00,00,00,0F,00,00,
230619998,00000260,false,Rx,0,8,02,03,92,C0,00,D0,00,10,
230620020,000000DF,false,Rx,0,3,90,00,70,00,00,00,00,00,
230818337,000003E5,false,Rx,0,6,00,00,00,00,00,04,00,00,
230858947,00000525,false,Rx,0,8,05,00,01,00,00,00,00,00,
230865879,000000DF,false,Rx,0,3,10,00,50,00,00,00,00,00,
230981095,000003E5,false,Rx,0,6,00,00,00,00,00,00,00,00,
231117674,00000260,false,Rx,0,8,03,03,A4,C0,00,C0,00,00,
231120101,000000DF,false,Rx,0,3,90,00,70,00,00,00,00,00,
231296693,000003F6,false,Rx,0,7,00,0B,90,00,00,C0,01,00,
231300618,00000525,false,Rx,0,8,05,00,00,00,00,00,00,00,
231340141,000003F6,false,Rx,0,7,00,12,70,00,00,C0,01,00,
231363582,00000120,false,Rx,0,8,BC,00,00,00,00,00,00,00,
231387569,000000DF,false,Rx,0,3,10,00,50,00,00,00,00,00,
231480413,00000225,false,Rx,0,5,22,10,20,03,98,00,00,00,
231491283,000000DF,false,Rx,0,3,90,00,70,00,00,00,00,00,
231618165,00000260,false,Rx,0,8,01,03,B1,40,00,D0,00,10,
231896707,00000525,false,Rx,0,8,05,00,01,00,00,00,00,00,
231905998,000000DF,false,Rx,0,3,10,00,50,00,00,00,00,00,
231991351,000000DF,false,Rx,0,3,90,00,70,00,00,00,00,00,
232049719,00000225,false,Rx,0,5,22,00,20,03,98,00,00,00,
232118405,00000260,false,Rx,0,8,02,03,92,C0,00,D0,00,10,
232274210,00000225,false,Rx,0,5,32,00,20,03,98,00,00,00,
232300914,00000525,false,Rx,0,8,05,00,00,00,00,00,00,00,
232337143,000003F6,false,Rx,0,7,00,0B,A0,00,00,C0,01,00,
232340518,000003F6,false,Rx,0,7,00,12,80,00,00,C0,01,00,
232363449,00000120,false,Rx,0,8,7C,10,00,03,00,04,00,08,
232426086,000000DF,false,Rx,0,3,10,00,50,00,00,00,00,00,
232436048,000002A5,false,Rx,0,8,00,00,00,00,00,00,00,00,
232437724,00000225,false,Rx,0,5,32,00,20,04,08,00,00,00,
232439434,00000265,false,Rx,0,4,80,00,00,00,00,00,00,00,
232492391,000000DF,false,Rx,0,3,90,00,70,00,00,00,00,00,
232589337,00000225,false,Rx,0,5,30,00,20,04,08,00,00,00,
232618397,00000260,false,Rx,0,8,03,03,A4,C0,00,C0,00,00,
232712098,00000265,false,Rx,0,4,A0,00,00,00,00,00,00,00,
232763059,00000265,false,Rx,0,4,A4,00,00,00,00,00,00,00,
232804026,00000265,false,Rx,0,4,A4,10,00,0F,00,00,00,00,
232937649,00000525,false,Rx,0,8,05,00,01,00,00,00,00,00,
232945865,000000DF,false,Rx,0,3,10,00,50,00,00,00,00,00,
233101986,000000DF,false,Rx,0,3,90,00,70,00,00,00,00,00,
233118998,00000260,false,Rx,0,8,01,03,B1,40,00,D0,00,10,
233301547,00000525,false,Rx,0,8,05,00,00,00,00,00,00,00,
233341166,000003F6,false,Rx,0,7,00,12,90,00,00,C0,01,00,
233364113,00000120,false,Rx,0,8,FC,00,00,00,00,0F,00,00,
233377631,000003F6,false,Rx,0,7,00,0B,B0,00,00,C0,01,00,
233466035,000000DF,false,Rx,0,3,10,00,50,00,00,00,00,00,
233600114,000000DF,false,Rx,0,3,90,00,70,00,00,00,00,00,
233619059,00000260,false,Rx,0,8,02,03,92,C0,00,D0,00,10,
233689692,000002A5,false,Rx,0,8,20,42,61,73,69,61,20,20,
233832094,000003E5,false,Rx,0,6,00,00,00,00,00,04,00,00,
233977785,00000525,false,Rx,0,8,05,00,01,00,00,00,00,00,
